 time            v(in1)          v(in2)          v(out)         
 0.00000000e+00  0.00000000e+00  0.00000000e+00  3.55443906e-05 
 1.00000000e-13  0.00000000e+00  0.00000000e+00  3.55443906e-05 
 2.00000000e-13  0.00000000e+00  0.00000000e+00  3.55443906e-05 
 4.00000000e-13  0.00000000e+00  0.00000000e+00  3.55443906e-05 
 8.00000000e-13  0.00000000e+00  0.00000000e+00  3.55443906e-05 
 1.60000000e-12  0.00000000e+00  0.00000000e+00  3.55443906e-05 
 3.20000000e-12  0.00000000e+00  0.00000000e+00  3.55443906e-05 
 6.40000000e-12  0.00000000e+00  0.00000000e+00  3.55443906e-05 
 1.28000000e-11  0.00000000e+00  0.00000000e+00  3.55443906e-05 
 2.28000000e-11  0.00000000e+00  0.00000000e+00  3.55443906e-05 
 3.28000000e-11  0.00000000e+00  0.00000000e+00  3.55443906e-05 
 4.28000000e-11  0.00000000e+00  0.00000000e+00  3.55443906e-05 
 5.28000000e-11  0.00000000e+00  0.00000000e+00  3.55443906e-05 
 6.28000000e-11  0.00000000e+00  0.00000000e+00  3.55443906e-05 
 7.28000000e-11  0.00000000e+00  0.00000000e+00  3.55443906e-05 
 8.28000000e-11  0.00000000e+00  0.00000000e+00  3.55443906e-05 
 9.28000000e-11  0.00000000e+00  0.00000000e+00  3.55443906e-05 
 1.00000000e-10  0.00000000e+00  0.00000000e+00  3.55443906e-05 
 1.00009236e-10  1.10836011e-04  0.00000000e+00  3.55446656e-05 
 1.00027709e-10  3.32508032e-04  0.00000000e+00  3.55462939e-05 
 1.00064654e-10  7.75852076e-04  0.00000000e+00  3.55618684e-05 
 1.00138545e-10  1.66254016e-03  0.00000000e+00  3.56921884e-05 
 1.00286326e-10  3.43591633e-03  0.00000000e+00  3.66286872e-05 
 1.00449276e-10  5.39130812e-03  0.00000000e+00  3.90504913e-05 
 1.00645421e-10  7.74504887e-03  0.00000000e+00  4.42158918e-05 
 1.00857275e-10  1.02873030e-02  0.00000000e+00  5.25854348e-05 
 1.01140068e-10  1.36808121e-02  0.00000000e+00  6.79144930e-05 
 1.01485757e-10  1.78290783e-02  0.00000000e+00  9.21911685e-05 
 1.01987676e-10  2.38521083e-02  0.00000000e+00  1.35817075e-04 
 1.02702319e-10  3.24278318e-02  0.00000000e+00  2.09469788e-04 
 1.03573264e-10  4.28791722e-02  0.00000000e+00  3.08958273e-04 
 1.04528353e-10  5.43402404e-02  0.00000000e+00  4.21155009e-04 
 1.05628926e-10  6.75471146e-02  0.00000000e+00  5.45766714e-04 
 1.06905985e-10  8.28718217e-02  0.00000000e+00  6.77130361e-04 
 1.08442133e-10  1.01305601e-01  0.00000000e+00  8.11663374e-04 
 1.10285794e-10  1.23429525e-01  0.00000000e+00  9.38360091e-04 
 1.11087998e-10  1.33055974e-01  0.00000000e+00  9.82139946e-04 
 1.11599398e-10  1.39192780e-01  0.00000000e+00  1.00764220e-03 
 1.12206988e-10  1.46483852e-01  0.00000000e+00  1.03836726e-03 
 1.12605406e-10  1.51264874e-01  0.00000000e+00  1.05849111e-03 
 1.13051321e-10  1.56615846e-01  0.00000000e+00  1.07947109e-03 
 1.13943149e-10  1.67317791e-01  0.00000000e+00  1.11587682e-03 
 1.15726807e-10  1.88721680e-01  0.00000000e+00  1.16776920e-03 
 1.18613341e-10  2.23360090e-01  0.00000000e+00  1.20344727e-03 
 1.22298452e-10  2.67581422e-01  0.00000000e+00  1.18746287e-03 
 1.26135721e-10  3.13628650e-01  0.00000000e+00  1.12478669e-03 
 1.28452666e-10  3.41431990e-01  0.00000000e+00  1.07209745e-03 
 1.30249540e-10  3.62994479e-01  0.00000000e+00  1.02562351e-03 
 1.31936590e-10  3.83239081e-01  0.00000000e+00  9.78030844e-04 
 1.33619129e-10  4.03429550e-01  0.00000000e+00  9.26785515e-04 
 1.35381867e-10  4.24582409e-01  0.00000000e+00  8.68903554e-04 
 1.37264163e-10  4.47169961e-01  0.00000000e+00  8.01992776e-04 
 1.39211534e-10  4.70538413e-01  0.00000000e+00  7.26713956e-04 
 1.40890294e-10  4.90683534e-01  0.00000000e+00  6.56508789e-04 
 1.42454508e-10  5.09454101e-01  0.00000000e+00  5.86339289e-04 
 1.44272280e-10  5.31267361e-01  0.00000000e+00  4.98697318e-04 
 1.45947928e-10  5.51375131e-01  0.00000000e+00  4.12194481e-04 
 1.48037860e-10  5.76454321e-01  0.00000000e+00  2.97405552e-04 
 1.50103527e-10  6.01242324e-01  0.00000000e+00  1.77754090e-04 
 1.52649972e-10  6.31799665e-01  0.00000000e+00  2.48676341e-05 
 1.55651265e-10  6.67815180e-01  0.00000000e+00 -1.66750354e-04 
 1.58605472e-10  7.03265661e-01  0.00000000e+00 -3.49223271e-04 
 1.61299282e-10  7.35591385e-01  0.00000000e+00 -5.05284603e-04 
 1.63511658e-10  7.62139897e-01  0.00000000e+00 -6.25296337e-04 
 1.65032724e-10  7.80392687e-01  0.00000000e+00 -7.04579994e-04 
 1.66227756e-10  7.94733074e-01  0.00000000e+00 -7.66161188e-04 
 1.67399450e-10  8.08793399e-01  0.00000000e+00 -8.27238807e-04 
 1.68596868e-10  8.23162416e-01  0.00000000e+00 -8.91845327e-04 
 1.69948827e-10  8.39385923e-01  0.00000000e+00 -9.69148241e-04 
 1.71250402e-10  8.55004823e-01  0.00000000e+00 -1.04855934e-03 
 1.71909004e-10  8.62908052e-01  0.00000000e+00 -1.09037417e-03 
 1.72318490e-10  8.67821884e-01  0.00000000e+00 -1.11639185e-03 
 1.72719775e-10  8.72637300e-01  0.00000000e+00 -1.14068051e-03 
 1.73024857e-10  8.76298281e-01  0.00000000e+00 -1.15817714e-03 
 1.73353759e-10  8.80245107e-01  0.00000000e+00 -1.17665912e-03 
 1.74011563e-10  8.88138761e-01  0.00000000e+00 -1.21300028e-03 
 1.75163358e-10  9.01960296e-01  0.00000000e+00 -1.27458117e-03 
 1.76403612e-10  9.16843347e-01  0.00000000e+00 -1.33657267e-03 
 1.77758464e-10  9.33101566e-01  0.00000000e+00 -1.39703089e-03 
 1.79233951e-10  9.50807410e-01  0.00000000e+00 -1.45277352e-03 
 1.81036904e-10  9.72442847e-01  0.00000000e+00 -1.50609064e-03 
 1.83159344e-10  9.97912124e-01  0.00000000e+00 -1.54906713e-03 
 1.85937315e-10  1.03124778e+00  0.00000000e+00 -1.57700224e-03 
 1.89110341e-10  1.06932409e+00  0.00000000e+00 -1.57667986e-03 
 1.92338594e-10  1.10806312e+00  0.00000000e+00 -1.54915527e-03 
 1.95777710e-10  1.14933252e+00  0.00000000e+00 -1.49798883e-03 
 1.99554579e-10  1.19465494e+00  0.00000000e+00 -1.42415786e-03 
 2.00000000e-10  1.20000000e+00  0.00000000e+00 -1.41451099e-03 
 2.00003200e-10  1.20000000e+00  0.00000000e+00 -1.41444114e-03 
 2.00009601e-10  1.20000000e+00  0.00000000e+00 -1.41430148e-03 
 2.00022402e-10  1.20000000e+00  0.00000000e+00 -1.41402256e-03 
 2.00048003e-10  1.20000000e+00  0.00000000e+00 -1.41346874e-03 
 2.00099207e-10  1.20000000e+00  0.00000000e+00 -1.41239368e-03 
 2.00201614e-10  1.20000000e+00  0.00000000e+00 -1.41047763e-03 
 2.00406429e-10  1.20000000e+00  0.00000000e+00 -1.40807071e-03 
 2.00635676e-10  1.20000000e+00  0.00000000e+00 -1.40805437e-03 
 2.00905196e-10  1.20000000e+00  0.00000000e+00 -1.41158519e-03 
 2.01194482e-10  1.20000000e+00  0.00000000e+00 -1.41880754e-03 
 2.01566060e-10  1.20000000e+00  0.00000000e+00 -1.43140189e-03 
 2.01937307e-10  1.20000000e+00  0.00000000e+00 -1.44577602e-03 
 2.02376458e-10  1.20000000e+00  0.00000000e+00 -1.46279614e-03 
 2.02827320e-10  1.20000000e+00  0.00000000e+00 -1.47856053e-03 
 2.03362731e-10  1.20000000e+00  0.00000000e+00 -1.49344492e-03 
 2.03935098e-10  1.20000000e+00  0.00000000e+00 -1.50375014e-03 
 2.04625685e-10  1.20000000e+00  0.00000000e+00 -1.50790097e-03 
 2.05393642e-10  1.20000000e+00  0.00000000e+00 -1.50203304e-03 
 2.06345487e-10  1.20000000e+00  0.00000000e+00 -1.48063197e-03 
 2.07464496e-10  1.20000000e+00  0.00000000e+00 -1.43816040e-03 
 2.08920786e-10  1.20000000e+00  0.00000000e+00 -1.36073991e-03 
 2.10615711e-10  1.20000000e+00  0.00000000e+00 -1.24794477e-03 
 2.12462239e-10  1.20000000e+00  0.00000000e+00 -1.10778167e-03 
 2.14439278e-10  1.20000000e+00  0.00000000e+00 -9.48035148e-04 
 2.16539885e-10  1.20000000e+00  0.00000000e+00 -7.76331323e-04 
 2.18768712e-10  1.20000000e+00  0.00000000e+00 -5.99246073e-04 
 2.21132119e-10  1.20000000e+00  0.00000000e+00 -4.22736532e-04 
 2.23644915e-10  1.20000000e+00  0.00000000e+00 -2.51551347e-04 
 2.26320919e-10  1.20000000e+00  0.00000000e+00 -8.99563467e-05 
 2.29180417e-10  1.20000000e+00  0.00000000e+00  5.54118321e-05 
 2.32233111e-10  1.20000000e+00  0.00000000e+00  1.81640810e-04 
 2.35530651e-10  1.20000000e+00  0.00000000e+00  2.93879816e-04 
 2.39118295e-10  1.20000000e+00  0.00000000e+00  3.89834254e-04 
 2.42975015e-10  1.20000000e+00  0.00000000e+00  4.66660033e-04 
 2.47194138e-10  1.20000000e+00  0.00000000e+00  5.24576954e-04 
 2.51848086e-10  1.20000000e+00  0.00000000e+00  5.63216074e-04 
 2.57035341e-10  1.20000000e+00  0.00000000e+00  5.82522693e-04 
 2.62925373e-10  1.20000000e+00  0.00000000e+00  5.82751219e-04 
 2.69765868e-10  1.20000000e+00  0.00000000e+00  5.63980240e-04 
 2.77495273e-10  1.20000000e+00  0.00000000e+00  5.28447769e-04 
 2.85936159e-10  1.20000000e+00  0.00000000e+00  4.81506795e-04 
 2.95324930e-10  1.20000000e+00  0.00000000e+00  4.26954702e-04 
 3.05324930e-10  1.20000000e+00  0.00000000e+00  3.71316209e-04 
 3.15324930e-10  1.20000000e+00  0.00000000e+00  3.20924771e-04 
 3.25324930e-10  1.20000000e+00  0.00000000e+00  2.76760743e-04 
 3.35324930e-10  1.20000000e+00  0.00000000e+00  2.38834136e-04 
 3.45324930e-10  1.20000000e+00  0.00000000e+00  2.06686300e-04 
 3.55324930e-10  1.20000000e+00  0.00000000e+00  1.79673538e-04 
 3.65324930e-10  1.20000000e+00  0.00000000e+00  1.57103179e-04 
 3.75324930e-10  1.20000000e+00  0.00000000e+00  1.38313653e-04 
 3.85324930e-10  1.20000000e+00  0.00000000e+00  1.22702672e-04 
 3.95324930e-10  1.20000000e+00  0.00000000e+00  1.09744325e-04 
 4.05324930e-10  1.20000000e+00  0.00000000e+00  9.89859510e-05 
 4.15324930e-10  1.20000000e+00  0.00000000e+00  9.00464734e-05 
 4.25324930e-10  1.20000000e+00  0.00000000e+00  8.26061504e-05 
 4.35324930e-10  1.20000000e+00  0.00000000e+00  7.64005874e-05 
 4.45324930e-10  1.20000000e+00  0.00000000e+00  7.12107807e-05 
 4.55324930e-10  1.20000000e+00  0.00000000e+00  6.68573057e-05 
 4.65324930e-10  1.20000000e+00  0.00000000e+00  6.31924866e-05 
 4.75324930e-10  1.20000000e+00  0.00000000e+00  6.00958714e-05 
 4.85324930e-10  1.20000000e+00  0.00000000e+00  5.74685696e-05 
 4.95324930e-10  1.20000000e+00  0.00000000e+00  5.52300291e-05 
 5.05324930e-10  1.20000000e+00  0.00000000e+00  5.33141110e-05 
 5.15324930e-10  1.20000000e+00  0.00000000e+00  5.16668946e-05 
 5.25324930e-10  1.20000000e+00  0.00000000e+00  5.02440183e-05 
 5.35324930e-10  1.20000000e+00  0.00000000e+00  4.90092227e-05 
 5.45324930e-10  1.20000000e+00  0.00000000e+00  4.79325714e-05 
 5.55324930e-10  1.20000000e+00  0.00000000e+00  4.69894986e-05 
 5.65324930e-10  1.20000000e+00  0.00000000e+00  4.61596259e-05 
 5.75324930e-10  1.20000000e+00  0.00000000e+00  4.54261449e-05 
 5.85324930e-10  1.20000000e+00  0.00000000e+00  4.47750322e-05 
 5.95324930e-10  1.20000000e+00  0.00000000e+00  4.41946501e-05 
 6.05324930e-10  1.20000000e+00  0.00000000e+00  4.36752260e-05 
 6.15324930e-10  1.20000000e+00  0.00000000e+00  4.32085934e-05 
 6.25324930e-10  1.20000000e+00  0.00000000e+00  4.27878460e-05 
 6.35324930e-10  1.20000000e+00  0.00000000e+00  4.24071691e-05 
 6.45324930e-10  1.20000000e+00  0.00000000e+00  4.20616086e-05 
 6.55324930e-10  1.20000000e+00  0.00000000e+00  4.17469606e-05 
 6.65324930e-10  1.20000000e+00  0.00000000e+00  4.14596158e-05 
 6.75324930e-10  1.20000000e+00  0.00000000e+00  4.11964869e-05 
 6.85324930e-10  1.20000000e+00  0.00000000e+00  4.09549032e-05 
 6.95324930e-10  1.20000000e+00  0.00000000e+00  4.07325619e-05 
 7.05324930e-10  1.20000000e+00  0.00000000e+00  4.05274562e-05 
 7.15324930e-10  1.20000000e+00  0.00000000e+00  4.03378421e-05 
 7.25324930e-10  1.20000000e+00  0.00000000e+00  4.01621891e-05 
 7.35324930e-10  1.20000000e+00  0.00000000e+00  3.99991572e-05 
 7.45324930e-10  1.20000000e+00  0.00000000e+00  3.98475628e-05 
 7.55324930e-10  1.20000000e+00  0.00000000e+00  3.97063621e-05 
 7.65324930e-10  1.20000000e+00  0.00000000e+00  3.95746273e-05 
 7.75324930e-10  1.20000000e+00  0.00000000e+00  3.94515352e-05 
 7.85324930e-10  1.20000000e+00  0.00000000e+00  3.93363499e-05 
 7.95324930e-10  1.20000000e+00  0.00000000e+00  3.92284143e-05 
 8.05324930e-10  1.20000000e+00  0.00000000e+00  3.91271380e-05 
 8.15324930e-10  1.20000000e+00  0.00000000e+00  3.90319911e-05 
 8.25324930e-10  1.20000000e+00  0.00000000e+00  3.89424950e-05 
 8.35324930e-10  1.20000000e+00  0.00000000e+00  3.88582182e-05 
 8.45324930e-10  1.20000000e+00  0.00000000e+00  3.87787691e-05 
 8.55324930e-10  1.20000000e+00  0.00000000e+00  3.87037931e-05 
 8.65324930e-10  1.20000000e+00  0.00000000e+00  3.86329674e-05 
 8.75324930e-10  1.20000000e+00  0.00000000e+00  3.85659980e-05 
 8.85324930e-10  1.20000000e+00  0.00000000e+00  3.85026165e-05 
 8.95324930e-10  1.20000000e+00  0.00000000e+00  3.84425778e-05 
 9.05324930e-10  1.20000000e+00  0.00000000e+00  3.83856571e-05 
 9.15324930e-10  1.20000000e+00  0.00000000e+00  3.83316484e-05 
 9.25324930e-10  1.20000000e+00  0.00000000e+00  3.82803624e-05 
 9.35324930e-10  1.20000000e+00  0.00000000e+00  3.82319015e-05 
 9.45324930e-10  1.20000000e+00  0.00000000e+00  3.81858465e-05 
 9.55324930e-10  1.20000000e+00  0.00000000e+00  3.81416376e-05 
 9.65324930e-10  1.20000000e+00  0.00000000e+00  3.80994544e-05 
 9.75324930e-10  1.20000000e+00  0.00000000e+00  3.80592767e-05 
 9.85324930e-10  1.20000000e+00  0.00000000e+00  3.80209866e-05 
 9.95324930e-10  1.20000000e+00  0.00000000e+00  3.79844859e-05 
 1.00532493e-09  1.20000000e+00  0.00000000e+00  3.79496563e-05 
 1.01532493e-09  1.20000000e+00  0.00000000e+00  3.79164065e-05 
 1.02532493e-09  1.20000000e+00  0.00000000e+00  3.78846369e-05 
 1.03532493e-09  1.20000000e+00  0.00000000e+00  3.78542685e-05 
 1.04532493e-09  1.20000000e+00  0.00000000e+00  3.78252173e-05 
 1.05532493e-09  1.20000000e+00  0.00000000e+00  3.77974148e-05 
 1.06532493e-09  1.20000000e+00  0.00000000e+00  3.77707895e-05 
 1.07532493e-09  1.20000000e+00  0.00000000e+00  3.77452817e-05 
 1.08532493e-09  1.20000000e+00  0.00000000e+00  3.77208299e-05 
 1.09532493e-09  1.20000000e+00  0.00000000e+00  3.76973819e-05 
 1.10000000e-09  1.20000000e+00  0.00000000e+00  3.76867068e-05 
 1.10000623e-09  1.20000000e+00  7.47846592e-05  3.76867300e-05 
 1.10001870e-09  1.20000000e+00  2.24353978e-04  3.76869244e-05 
 1.10004362e-09  1.20000000e+00  5.23492615e-04  3.76890479e-05 
 1.10009348e-09  1.20000000e+00  1.12176989e-03  3.77081040e-05 
 1.10019319e-09  1.20000000e+00  2.31832444e-03  3.78589098e-05 
 1.10035398e-09  1.20000000e+00  4.24780941e-03  3.86123509e-05 
 1.10052645e-09  1.20000000e+00  6.31740420e-03  4.03645145e-05 
 1.10073272e-09  1.20000000e+00  8.79266656e-03  4.40057468e-05 
 1.10096474e-09  1.20000000e+00  1.15768553e-02  5.02623101e-05 
 1.10127326e-09  1.20000000e+00  1.52791207e-02  6.21054016e-05 
 1.10166067e-09  1.20000000e+00  1.99280818e-02  8.22253050e-05 
 1.10222547e-09  1.20000000e+00  2.67056864e-02  1.20200026e-04 
 1.10257097e-09  1.20000000e+00  3.08516813e-02  1.48041340e-04 
 1.10294876e-09  1.20000000e+00  3.53851718e-02  1.81870144e-04 
 1.10332684e-09  1.20000000e+00  3.99220837e-02  2.18064572e-04 
 1.10408299e-09  1.20000000e+00  4.89959075e-02  2.93899680e-04 
 1.10521806e-09  1.20000000e+00  6.26166669e-02  4.08970699e-04 
 1.10636404e-09  1.20000000e+00  7.63685121e-02  5.19389455e-04 
 1.10776175e-09  1.20000000e+00  9.31410171e-02  6.39556640e-04 
 1.10932595e-09  1.20000000e+00  1.11911442e-01  7.52211593e-04 
 1.11147779e-09  1.20000000e+00  1.37733508e-01  8.70706019e-04 
 1.11406419e-09  1.20000000e+00  1.68770264e-01  9.65383072e-04 
 1.11777102e-09  1.20000000e+00  2.13252222e-01  1.03444842e-03 
 1.12130219e-09  1.20000000e+00  2.55626244e-01  1.05084309e-03 
 1.12324107e-09  1.20000000e+00  2.78892821e-01  1.04664720e-03 
 1.12473144e-09  1.20000000e+00  2.96777311e-01  1.03938380e-03 
 1.12615401e-09  1.20000000e+00  3.13848069e-01  1.03010761e-03 
 1.12754259e-09  1.20000000e+00  3.30511092e-01  1.01946134e-03 
 1.12898574e-09  1.20000000e+00  3.47828860e-01  1.00726999e-03 
 1.13053521e-09  1.20000000e+00  3.66422571e-01  9.93427641e-04 
 1.13222742e-09  1.20000000e+00  3.86729093e-01  9.77972351e-04 
 1.13414243e-09  1.20000000e+00  4.09709147e-01  9.60681059e-04 
 1.13555369e-09  1.20000000e+00  4.26644318e-01  9.48386475e-04 
 1.13705850e-09  1.20000000e+00  4.44701957e-01  9.35957409e-04 
 1.13869365e-09  1.20000000e+00  4.64323748e-01  9.23459452e-04 
 1.14052265e-09  1.20000000e+00  4.86271806e-01  9.10938936e-04 
 1.14256972e-09  1.20000000e+00  5.10836668e-01  8.98947694e-04 
 1.14511294e-09  1.20000000e+00  5.41355232e-01  8.87129450e-04 
 1.14747508e-09  1.20000000e+00  5.69700999e-01  8.78974573e-04 
 1.14949020e-09  1.20000000e+00  5.93882439e-01  8.73597430e-04 
 1.15116226e-09  1.20000000e+00  6.13947171e-01  8.69522600e-04 
 1.15266153e-09  1.20000000e+00  6.31938313e-01  8.65365508e-04 
 1.15415791e-09  1.20000000e+00  6.49894907e-01  8.59737800e-04 
 1.15579177e-09  1.20000000e+00  6.69501297e-01  8.50327631e-04 
 1.15748027e-09  1.20000000e+00  6.89763222e-01  8.34601529e-04 
 1.15905880e-09  1.20000000e+00  7.08705583e-01  8.11305081e-04 
 1.16052680e-09  1.20000000e+00  7.26321619e-01  7.78657231e-04 
 1.16194263e-09  1.20000000e+00  7.43311505e-01  7.33418216e-04 
 1.16330920e-09  1.20000000e+00  7.59710377e-01  6.73184348e-04 
 1.16466342e-09  1.20000000e+00  7.75961044e-01  5.93510791e-04 
 1.16613885e-09  1.20000000e+00  7.93666166e-01  4.79671923e-04 
 1.16753181e-09  1.20000000e+00  8.10381779e-01  3.42614471e-04 
 1.16896910e-09  1.20000000e+00  8.27629248e-01  1.67311412e-04 
 1.17033148e-09  1.20000000e+00  8.43977807e-01 -3.61105672e-05 
 1.17171269e-09  1.20000000e+00  8.60552314e-01 -2.93561561e-04 
 1.17304919e-09  1.20000000e+00  8.76590280e-01 -5.80841781e-04 
 1.17451675e-09  1.20000000e+00  8.94201034e-01 -9.40848463e-04 
 1.17617032e-09  1.20000000e+00  9.14043849e-01 -1.39780891e-03 
 1.17755857e-09  1.20000000e+00  9.30702855e-01 -1.81709238e-03 
 1.17887053e-09  1.20000000e+00  9.46446385e-01 -2.23663920e-03 
 1.18026979e-09  1.20000000e+00  9.63237529e-01 -2.70307426e-03 
 1.18178928e-09  1.20000000e+00  9.81471301e-01 -3.22583559e-03 
 1.18341486e-09  1.20000000e+00  1.00097838e+00 -3.79751087e-03 
 1.18506640e-09  1.20000000e+00  1.02079679e+00 -4.38527445e-03 
 1.18686910e-09  1.20000000e+00  1.04242926e+00 -5.02777670e-03 
 1.18855527e-09  1.20000000e+00  1.06266320e+00 -5.62358114e-03 
 1.19026217e-09  1.20000000e+00  1.08314607e+00 -6.21610324e-03 
 1.19185641e-09  1.20000000e+00  1.10227696e+00 -6.75586894e-03 
 1.19351009e-09  1.20000000e+00  1.12212112e+00 -7.29851137e-03 
 1.19513023e-09  1.20000000e+00  1.14156274e+00 -7.81082051e-03 
 1.19683799e-09  1.20000000e+00  1.16205588e+00 -8.32847284e-03 
 1.19848451e-09  1.20000000e+00  1.18181417e+00 -8.80502229e-03 
 1.20000000e-09  1.20000000e+00  1.20000000e+00 -9.22391959e-03 
 1.20003212e-09  1.20000000e+00  1.20000000e+00 -9.23259423e-03 
 1.20009636e-09  1.20000000e+00  1.20000000e+00 -9.24994184e-03 
 1.20022485e-09  1.20000000e+00  1.20000000e+00 -9.28471932e-03 
 1.20041744e-09  1.20000000e+00  1.20000000e+00 -9.33736573e-03 
 1.20070149e-09  1.20000000e+00  1.20000000e+00 -9.41671695e-03 
 1.20101726e-09  1.20000000e+00  1.20000000e+00 -9.50762835e-03 
 1.20136118e-09  1.20000000e+00  1.20000000e+00 -9.60962948e-03 
 1.20172003e-09  1.20000000e+00  1.20000000e+00 -9.71872099e-03 
 1.20211547e-09  1.20000000e+00  1.20000000e+00 -9.84117148e-03 
 1.20255087e-09  1.20000000e+00  1.20000000e+00 -9.97758456e-03 
 1.20303822e-09  1.20000000e+00  1.20000000e+00 -1.01309399e-02 
 1.20358266e-09  1.20000000e+00  1.20000000e+00 -1.03016926e-02 
 1.20420516e-09  1.20000000e+00  1.20000000e+00 -1.04947055e-02 
 1.20492265e-09  1.20000000e+00  1.20000000e+00 -1.07127489e-02 
 1.20577345e-09  1.20000000e+00  1.20000000e+00 -1.09637357e-02 
 1.20680252e-09  1.20000000e+00  1.20000000e+00 -1.12551050e-02 
 1.20810211e-09  1.20000000e+00  1.20000000e+00 -1.16045923e-02 
 1.20952345e-09  1.20000000e+00  1.20000000e+00 -1.19647507e-02 
 1.21097740e-09  1.20000000e+00  1.20000000e+00 -1.23091117e-02 
 1.21250697e-09  1.20000000e+00  1.20000000e+00 -1.26458303e-02 
 1.21416722e-09  1.20000000e+00  1.20000000e+00 -1.29842120e-02 
 1.21594035e-09  1.20000000e+00  1.20000000e+00 -1.33170717e-02 
