 time            v(A)            v(B)            v(A_GT_B)       v(A_LT_B)       v(A_EQ_B)      
 0.00000000e+00  0.00000000e+00  0.00000000e+00  3.41853444e-05  3.70290211e-05  1.19926091e+00 
 1.00000000e-13  0.00000000e+00  0.00000000e+00  3.41853444e-05  3.70290211e-05  1.19926091e+00 
 2.00000000e-13  0.00000000e+00  0.00000000e+00  3.41853444e-05  3.70290211e-05  1.19926091e+00 
 4.00000000e-13  0.00000000e+00  0.00000000e+00  3.41853444e-05  3.70290211e-05  1.19926091e+00 
 8.00000000e-13  0.00000000e+00  0.00000000e+00  3.41853444e-05  3.70290211e-05  1.19926091e+00 
 1.60000000e-12  0.00000000e+00  0.00000000e+00  3.41853444e-05  3.70290211e-05  1.19926091e+00 
 3.20000000e-12  0.00000000e+00  0.00000000e+00  3.41853444e-05  3.70290211e-05  1.19926091e+00 
 6.40000000e-12  0.00000000e+00  0.00000000e+00  3.41853444e-05  3.70290211e-05  1.19926091e+00 
 1.28000000e-11  0.00000000e+00  0.00000000e+00  3.41853444e-05  3.70290211e-05  1.19926091e+00 
 2.28000000e-11  0.00000000e+00  0.00000000e+00  3.41853444e-05  3.70290211e-05  1.19926091e+00 
 3.28000000e-11  0.00000000e+00  0.00000000e+00  3.41853444e-05  3.70290211e-05  1.19926091e+00 
 4.28000000e-11  0.00000000e+00  0.00000000e+00  3.41853444e-05  3.70290211e-05  1.19926091e+00 
 5.28000000e-11  0.00000000e+00  0.00000000e+00  3.41853444e-05  3.70290211e-05  1.19926091e+00 
 6.28000000e-11  0.00000000e+00  0.00000000e+00  3.41853444e-05  3.70290211e-05  1.19926091e+00 
 7.28000000e-11  0.00000000e+00  0.00000000e+00  3.41853444e-05  3.70290211e-05  1.19926091e+00 
 8.28000000e-11  0.00000000e+00  0.00000000e+00  3.41853444e-05  3.70290211e-05  1.19926091e+00 
 9.28000000e-11  0.00000000e+00  0.00000000e+00  3.41853444e-05  3.70290211e-05  1.19926091e+00 
 1.00000000e-10  0.00000000e+00  0.00000000e+00  3.41853444e-05  3.70290211e-05  1.19926091e+00 
 1.00009082e-10  1.08979358e-04  0.00000000e+00  3.41856366e-05  3.70290218e-05  1.19926091e+00 
 1.00027245e-10  3.26938074e-04  0.00000000e+00  3.41873666e-05  3.70290269e-05  1.19926091e+00 
 1.00063571e-10  7.62855505e-04  0.00000000e+00  3.42039298e-05  3.70291147e-05  1.19926091e+00 
 1.00136224e-10  1.63469037e-03  0.00000000e+00  3.43428094e-05  3.70305112e-05  1.19926091e+00 
 1.00281530e-10  3.37836010e-03  0.00000000e+00  3.53446019e-05  3.70487649e-05  1.19926091e+00 
 1.00445201e-10  5.34241307e-03  0.00000000e+00  3.80212326e-05  3.71179251e-05  1.19926091e+00 
 1.00639562e-10  7.67474369e-03  0.00000000e+00  4.36944466e-05  3.73083862e-05  1.19926091e+00 
 1.00851419e-10  1.02170270e-02  0.00000000e+00  5.30169368e-05  3.76869685e-05  1.19926093e+00 
 1.01128771e-10  1.35452486e-02  0.00000000e+00  6.98162351e-05  3.84795609e-05  1.19926095e+00 
 1.01332360e-10  1.59883234e-02  0.00000000e+00  8.51358404e-05  3.92800634e-05  1.19926099e+00 
 1.01556135e-10  1.86736152e-02  0.00000000e+00  1.04482397e-04  4.03752364e-05  1.19926104e+00 
 1.01818814e-10  2.18257622e-02  0.00000000e+00  1.30066866e-04  4.19324481e-05  1.19926113e+00 
 1.02205391e-10  2.64646962e-02  0.00000000e+00  1.72291057e-04  4.46676633e-05  1.19926130e+00 
 1.02978547e-10  3.57425643e-02  0.00000000e+00  2.67916505e-04  5.11826737e-05  1.19926180e+00 
 1.03830567e-10  4.59668012e-02  0.00000000e+00  3.83213212e-04  5.91913757e-05  1.19926253e+00 
 1.04833423e-10  5.80010720e-02  0.00000000e+00  5.22064477e-04  6.86608052e-05  1.19926354e+00 
 1.05867710e-10  7.04125254e-02  0.00000000e+00  6.61192506e-04  7.76940063e-05  1.19926463e+00 
 1.07151117e-10  8.58134059e-02  0.00000000e+00  8.21006403e-04  8.71926679e-05  1.19926586e+00 
 1.08585837e-10  1.03030042e-01  0.00000000e+00  9.78621909e-04  9.52653220e-05  1.19926696e+00 
 1.10412064e-10  1.24944767e-01  0.00000000e+00  1.14564744e-03  1.01803009e-04  1.19926782e+00 
 1.11193366e-10  1.34320393e-01  0.00000000e+00  1.20588695e-03  1.03428730e-04  1.19926799e+00 
 1.11682120e-10  1.40185435e-01  0.00000000e+00  1.24033212e-03  1.04133737e-04  1.19926805e+00 
 1.12389417e-10  1.48673010e-01  0.00000000e+00  1.28606638e-03  1.04773211e-04  1.19926808e+00 
 1.12764816e-10  1.53177794e-01  0.00000000e+00  1.30844607e-03  1.04903026e-04  1.19926807e+00 
 1.13328662e-10  1.59943946e-01  0.00000000e+00  1.33972642e-03  1.04809507e-04  1.19926803e+00 
 1.14456354e-10  1.73476250e-01  0.00000000e+00  1.39442126e-03  1.04266562e-04  1.19926787e+00 
 1.16140005e-10  1.93680064e-01  0.00000000e+00  1.45851147e-03  1.02580161e-04  1.19926738e+00 
 1.17941542e-10  2.15298510e-01  0.00000000e+00  1.50693907e-03  9.92453014e-05  1.19926659e+00 
 1.18510554e-10  2.22126643e-01  0.00000000e+00  1.51969946e-03  9.79195216e-05  1.19926629e+00 
 1.19327219e-10  2.31926629e-01  0.00000000e+00  1.53830185e-03  9.58436449e-05  1.19926584e+00 
 1.19878619e-10  2.38543423e-01  0.00000000e+00  1.54977453e-03  9.43404983e-05  1.19926552e+00 
 1.20558367e-10  2.46700399e-01  0.00000000e+00  1.56161725e-03  9.23933379e-05  1.19926511e+00 
 1.21917863e-10  2.63014353e-01  0.00000000e+00  1.57786758e-03  8.82425696e-05  1.19926426e+00 
 1.23752490e-10  2.85029877e-01  0.00000000e+00  1.58537591e-03  8.22244365e-05  1.19926311e+00 
 1.25470049e-10  3.05640589e-01  0.00000000e+00  1.57902517e-03  7.62800244e-05  1.19926206e+00 
 1.27118936e-10  3.25427228e-01  0.00000000e+00  1.56178467e-03  7.03533688e-05  1.19926110e+00 
 1.28547307e-10  3.42567681e-01  0.00000000e+00  1.53826287e-03  6.50425301e-05  1.19926033e+00 
 1.30144329e-10  3.61731949e-01  0.00000000e+00  1.50253047e-03  5.88793643e-05  1.19925952e+00 
 1.31724013e-10  3.80688162e-01  0.00000000e+00  1.45707647e-03  5.24908143e-05  1.19925880e+00 
 1.33431251e-10  4.01175010e-01  0.00000000e+00  1.39611948e-03  4.51642818e-05  1.19925809e+00 
 1.34874973e-10  4.18499679e-01  0.00000000e+00  1.33420255e-03  3.85268031e-05  1.19925756e+00 
 1.36576698e-10  4.38920382e-01  0.00000000e+00  1.24758718e-03  3.00035013e-05  1.19925698e+00 
 1.38122047e-10  4.57464565e-01  0.00000000e+00  1.15520265e-03  2.14764334e-05  1.19925650e+00 
 1.39955753e-10  4.79469038e-01  0.00000000e+00  1.02727999e-03  1.06167914e-05  1.19925598e+00 
 1.41613854e-10  4.99366245e-01  0.00000000e+00  8.93648572e-04 -8.15092638e-09  1.19925554e+00 
 1.43296584e-10  5.19559013e-01  0.00000000e+00  7.40247612e-04 -1.27870842e-05  1.19925512e+00 
 1.45082037e-10  5.40984443e-01  0.00000000e+00  5.58097085e-04 -2.75194548e-05  1.19925470e+00 
 1.46929521e-10  5.63154249e-01  0.00000000e+00  3.49443003e-04 -4.40578728e-05  1.19925427e+00 
 1.48952293e-10  5.87427518e-01  0.00000000e+00  9.91087892e-05 -6.35415995e-05  1.19925384e+00 
 1.51225997e-10  6.14711958e-01  0.00000000e+00 -2.20527497e-04 -8.70013911e-05  1.19925339e+00 
 1.53555460e-10  6.42665522e-01  0.00000000e+00 -5.76030766e-04 -1.12596964e-04  1.19925300e+00 
 1.54245129e-10  6.50941550e-01  0.00000000e+00 -6.84869413e-04 -1.20466509e-04  1.19925291e+00 
 1.54705743e-10  6.56468918e-01  0.00000000e+00 -7.58435729e-04 -1.25796506e-04  1.19925285e+00 
 1.54963138e-10  6.59557656e-01  0.00000000e+00 -7.99843254e-04 -1.28801055e-04  1.19925281e+00 
 1.55146031e-10  6.61752377e-01  0.00000000e+00 -8.29394056e-04 -1.30947439e-04  1.19925279e+00 
 1.55264183e-10  6.63170190e-01  0.00000000e+00 -8.48540582e-04 -1.32336144e-04  1.19925278e+00 
 1.55413178e-10  6.64958137e-01  0.00000000e+00 -8.72748273e-04 -1.34074894e-04  1.19925276e+00 
 1.55556223e-10  6.66674677e-01  0.00000000e+00 -8.96054639e-04 -1.35717851e-04  1.19925274e+00 
 1.55711084e-10  6.68533011e-01  0.00000000e+00 -9.21358291e-04 -1.37461921e-04  1.19925272e+00 
 1.56020807e-10  6.72249678e-01  0.00000000e+00 -9.72189533e-04 -1.40862842e-04  1.19925268e+00 
 1.56640251e-10  6.79683013e-01  0.00000000e+00 -1.07474539e-03 -1.47504416e-04  1.19925262e+00 
 1.57592803e-10  6.91113638e-01  0.00000000e+00 -1.23477084e-03 -1.57818758e-04  1.19925253e+00 
 1.58785032e-10  7.05420384e-01  0.00000000e+00 -1.43906043e-03 -1.71495768e-04  1.19925246e+00 
 1.59174352e-10  7.10092227e-01  0.00000000e+00 -1.50566740e-03 -1.76200981e-04  1.19925244e+00 
 1.59707321e-10  7.16487852e-01  0.00000000e+00 -1.59510195e-03 -1.82863158e-04  1.19925242e+00 
 1.60178152e-10  7.22137828e-01  0.00000000e+00 -1.67393667e-03 -1.88971717e-04  1.19925242e+00 
 1.60682809e-10  7.28193709e-01  0.00000000e+00 -1.75952306e-03 -1.95763779e-04  1.19925242e+00 
 1.61692123e-10  7.40305470e-01  0.00000000e+00 -1.93549378e-03 -2.10167020e-04  1.19925243e+00 
 1.63111540e-10  7.57338480e-01  0.00000000e+00 -2.19552863e-03 -2.32396355e-04  1.19925248e+00 
 1.64623569e-10  7.75482831e-01  0.00000000e+00 -2.49133515e-03 -2.58637766e-04  1.19925256e+00 
 1.65804279e-10  7.89651353e-01  0.00000000e+00 -2.73787333e-03 -2.80799606e-04  1.19925264e+00 
 1.67082951e-10  8.04995407e-01  0.00000000e+00 -3.02194876e-03 -3.06121601e-04  1.19925272e+00 
 1.68270176e-10  8.19242108e-01  0.00000000e+00 -3.30185641e-03 -3.30617503e-04  1.19925280e+00 
 1.69470335e-10  8.33644025e-01  0.00000000e+00 -3.59940787e-03 -3.56130644e-04  1.19925285e+00 
 1.70739891e-10  8.48878691e-01  0.00000000e+00 -3.92769505e-03 -3.83722673e-04  1.19925288e+00 
 1.72119696e-10  8.65436351e-01  0.00000000e+00 -4.29686209e-03 -4.14141831e-04  1.19925287e+00 
 1.72588857e-10  8.71066284e-01  0.00000000e+00 -4.42472830e-03 -4.24540230e-04  1.19925286e+00 
 1.73225908e-10  8.78710898e-01  0.00000000e+00 -4.59964777e-03 -4.38655335e-04  1.19925284e+00 
 1.73886428e-10  8.86637137e-01  0.00000000e+00 -4.78220675e-03 -4.53249070e-04  1.19925284e+00 
 1.74520390e-10  8.94244681e-01  0.00000000e+00 -4.95819429e-03 -4.67179521e-04  1.19925286e+00 
 1.75788314e-10  9.09459768e-01  0.00000000e+00 -5.31105457e-03 -4.94673265e-04  1.19925292e+00 
 1.76989381e-10  9.23872571e-01  0.00000000e+00 -5.64515317e-03 -5.20129422e-04  1.19925304e+00 
 1.78529034e-10  9.42348413e-01  0.00000000e+00 -6.07135812e-03 -5.51705485e-04  1.19925329e+00 
 1.80041605e-10  9.60499259e-01  0.00000000e+00 -6.48685052e-03 -5.81434246e-04  1.19925364e+00 
 1.82094555e-10  9.85134663e-01  0.00000000e+00 -7.04538628e-03 -6.19620781e-04  1.19925430e+00 
 1.84390408e-10  1.01268490e+00  0.00000000e+00 -7.66385892e-03 -6.59378884e-04  1.19925524e+00 
 1.87055153e-10  1.04466183e+00  0.00000000e+00 -8.37673397e-03 -7.01749683e-04  1.19925652e+00 
 1.89144386e-10  1.06973263e+00  0.00000000e+00 -8.93418780e-03 -7.32309254e-04  1.19925761e+00 
 1.90623114e-10  1.08747737e+00  0.00000000e+00 -9.32893992e-03 -7.52714601e-04  1.19925841e+00 
 1.92146648e-10  1.10575977e+00  0.00000000e+00 -9.73723187e-03 -7.73734789e-04  1.19925924e+00 
 1.92974369e-10  1.11569242e+00  0.00000000e+00 -9.96029654e-03 -7.85918244e-04  1.19925969e+00 
 1.93640139e-10  1.12368167e+00  0.00000000e+00 -1.01403939e-02 -7.96555924e-04  1.19926005e+00 
 1.94584493e-10  1.13501392e+00  0.00000000e+00 -1.03967433e-02 -8.13177910e-04  1.19926057e+00 
 1.96105852e-10  1.15327022e+00  0.00000000e+00 -1.08119916e-02 -8.43971464e-04  1.19926141e+00 
 1.97679144e-10  1.17214973e+00  0.00000000e+00 -1.12444589e-02 -8.80365891e-04  1.19926230e+00 
 1.98645802e-10  1.18374962e+00  0.00000000e+00 -1.15117311e-02 -9.04078436e-04  1.19926287e+00 
 1.99690482e-10  1.19628578e+00  0.00000000e+00 -1.18017749e-02 -9.29303124e-04  1.19926352e+00 
 2.00000000e-10  1.20000000e+00  0.00000000e+00 -1.18878945e-02 -9.36503949e-04  1.19926371e+00 
 2.00015612e-10  1.20000000e+00  0.00000000e+00 -1.18922405e-02 -9.36861179e-04  1.19926372e+00 
 2.00046837e-10  1.20000000e+00  0.00000000e+00 -1.19009389e-02 -9.37574514e-04  1.19926374e+00 
 2.00109286e-10  1.20000000e+00  0.00000000e+00 -1.19184006e-02 -9.38995662e-04  1.19926378e+00 
 2.00234184e-10  1.20000000e+00  0.00000000e+00 -1.19537874e-02 -9.41821848e-04  1.19926387e+00 
 2.00449381e-10  1.20000000e+00  0.00000000e+00 -1.20168467e-02 -9.46675032e-04  1.19926401e+00 
 2.00681788e-10  1.20000000e+00  0.00000000e+00 -1.20883052e-02 -9.51941903e-04  1.19926416e+00 
 2.00955868e-10  1.20000000e+00  0.00000000e+00 -1.21766624e-02 -9.58214995e-04  1.19926433e+00 
 2.01255044e-10  1.20000000e+00  0.00000000e+00 -1.22768701e-02 -9.65105684e-04  1.19926450e+00 
 2.01633159e-10  1.20000000e+00  0.00000000e+00 -1.24067152e-02 -9.73764343e-04  1.19926469e+00 
 2.02009122e-10  1.20000000e+00  0.00000000e+00 -1.25370394e-02 -9.82153363e-04  1.19926486e+00 
 2.02455875e-10  1.20000000e+00  0.00000000e+00 -1.26907012e-02 -9.91534608e-04  1.19926502e+00 
 2.02914778e-10  1.20000000e+00  0.00000000e+00 -1.28450916e-02 -1.00019087e-03  1.19926518e+00 
 2.03462468e-10  1.20000000e+00  0.00000000e+00 -1.30228747e-02 -1.00885615e-03  1.19926536e+00 
 2.04048208e-10  1.20000000e+00  0.00000000e+00 -1.32040168e-02 -1.01580782e-03  1.19926558e+00 
 2.04756606e-10  1.20000000e+00  0.00000000e+00 -1.34099513e-02 -1.02071894e-03  1.19926592e+00 
 2.05547135e-10  1.20000000e+00  0.00000000e+00 -1.36228513e-02 -1.02151192e-03  1.19926642e+00 
 2.06530806e-10  1.20000000e+00  0.00000000e+00 -1.38640615e-02 -1.01564837e-03  1.19926728e+00 
 2.07692969e-10  1.20000000e+00  0.00000000e+00 -1.41179019e-02 -9.99446368e-04  1.19926861e+00 
 2.09216386e-10  1.20000000e+00  0.00000000e+00 -1.44053450e-02 -9.64608567e-04  1.19927082e+00 
 2.10772475e-10  1.20000000e+00  0.00000000e+00 -1.46521699e-02 -9.15401325e-04  1.19927349e+00 
 2.12515755e-10  1.20000000e+00  0.00000000e+00 -1.48792858e-02 -8.47203200e-04  1.19927680e+00 
 2.14295647e-10  1.20000000e+00  0.00000000e+00 -1.50620660e-02 -7.66633762e-04  1.19928031e+00 
 2.16312439e-10  1.20000000e+00  0.00000000e+00 -1.52123551e-02 -6.65928626e-04  1.19928426e+00 
 2.17080781e-10  1.20000000e+00  0.00000000e+00 -1.52540225e-02 -6.25623465e-04  1.19928572e+00 
 2.18091901e-10  1.20000000e+00  0.00000000e+00 -1.52956681e-02 -5.71702624e-04  1.19928760e+00 
 2.18634367e-10  1.20000000e+00  0.00000000e+00 -1.53114690e-02 -5.42523271e-04  1.19928861e+00 
 2.19297768e-10  1.20000000e+00  0.00000000e+00 -1.53241533e-02 -5.06731446e-04  1.19928989e+00 
 2.19957054e-10  1.20000000e+00  0.00000000e+00 -1.53300630e-02 -4.71112900e-04  1.19929119e+00 
 2.20820088e-10  1.20000000e+00  0.00000000e+00 -1.53278294e-02 -4.24579904e-04  1.19929287e+00 
 2.21812886e-10  1.20000000e+00  0.00000000e+00 -1.53097792e-02 -3.71433121e-04  1.19929476e+00 
 2.23028683e-10  1.20000000e+00  0.00000000e+00 -1.52627224e-02 -3.07262258e-04  1.19929700e+00 
 2.24093167e-10  1.20000000e+00  0.00000000e+00 -1.51959607e-02 -2.52110087e-04  1.19929887e+00 
 2.25173672e-10  1.20000000e+00  0.00000000e+00 -1.50995435e-02 -1.97201343e-04  1.19930067e+00 
 2.26373998e-10  1.20000000e+00  0.00000000e+00 -1.49550322e-02 -1.37459531e-04  1.19930250e+00 
 2.27722460e-10  1.20000000e+00  0.00000000e+00 -1.47392705e-02 -7.18951847e-05  1.19930430e+00 
 2.28979347e-10  1.20000000e+00  0.00000000e+00 -1.44774028e-02 -1.22853703e-05  1.19930572e+00 
 2.30346130e-10  1.20000000e+00  0.00000000e+00 -1.41132185e-02  4.74239996e-05  1.19930694e+00 
 2.31965781e-10  1.20000000e+00  0.00000000e+00 -1.35568867e-02  1.15394218e-04  1.19930795e+00 
 2.33883628e-10  1.20000000e+00  0.00000000e+00 -1.26951658e-02  1.92125487e-04  1.19930852e+00 
 2.36125756e-10  1.20000000e+00  0.00000000e+00 -1.13654681e-02  2.75022592e-04  1.19930841e+00 
 2.38226851e-10  1.20000000e+00  0.00000000e+00 -9.76452341e-03  3.44708697e-04  1.19930762e+00 
 2.40575103e-10  1.20000000e+00  0.00000000e+00 -7.52378582e-03  4.12291634e-04  1.19930603e+00 
 2.42806069e-10  1.20000000e+00  0.00000000e+00 -4.91649085e-03  4.65948115e-04  1.19930394e+00 
 2.45244834e-10  1.20000000e+00  0.00000000e+00 -1.48951124e-03  5.12843054e-04  1.19930111e+00 
 2.46121889e-10  1.20000000e+00  0.00000000e+00 -1.02480725e-04  5.26763968e-04  1.19929998e+00 
 2.46639617e-10  1.20000000e+00  0.00000000e+00  7.10659875e-04  5.34273746e-04  1.19929928e+00 
 2.47113888e-10  1.20000000e+00  0.00000000e+00  1.48105947e-03  5.40701456e-04  1.19929863e+00 
 2.47653182e-10  1.20000000e+00  0.00000000e+00  2.39067675e-03  5.47495297e-04  1.19929788e+00 
 2.48555016e-10  1.20000000e+00  0.00000000e+00  3.99384227e-03  5.57659367e-04  1.19929658e+00 
 2.50358682e-10  1.20000000e+00  0.00000000e+00  7.52283953e-03  5.73719773e-04  1.19929387e+00 
 2.52532624e-10  1.20000000e+00  0.00000000e+00  1.23839381e-02  5.86066438e-04  1.19929044e+00 
 2.55195383e-10  1.20000000e+00  0.00000000e+00  1.93608150e-02  5.91925477e-04  1.19928606e+00 
 2.57507255e-10  1.20000000e+00  0.00000000e+00  2.64723862e-02  5.89812217e-04  1.19928210e+00 
 2.59508098e-10  1.20000000e+00  0.00000000e+00  3.35525421e-02  5.83413234e-04  1.19927855e+00 
 2.61312130e-10  1.20000000e+00  0.00000000e+00  4.07915051e-02  5.74566373e-04  1.19927522e+00 
 2.63040065e-10  1.20000000e+00  0.00000000e+00  4.86026912e-02  5.63777412e-04  1.19927186e+00 
 2.65078532e-10  1.20000000e+00  0.00000000e+00  5.90699795e-02  5.48635830e-04  1.19926758e+00 
 2.66978953e-10  1.20000000e+00  0.00000000e+00  7.01334622e-02  5.32589135e-04  1.19926318e+00 
 2.68775852e-10  1.20000000e+00  0.00000000e+00  8.17852893e-02  5.16067716e-04  1.19925853e+00 
 2.70424152e-10  1.20000000e+00  0.00000000e+00  9.35104698e-02  5.00023992e-04  1.19925378e+00 
 2.72268355e-10  1.20000000e+00  0.00000000e+00  1.07817176e-01  4.81343949e-04  1.19924777e+00 
 2.74197775e-10  1.20000000e+00  0.00000000e+00  1.24106375e-01  4.61254249e-04  1.19924059e+00 
 2.76280393e-10  1.20000000e+00  0.00000000e+00  1.43146777e-01  4.39251729e-04  1.19923164e+00 
 2.78271047e-10  1.20000000e+00  0.00000000e+00  1.62690290e-01  4.18168468e-04  1.19922181e+00 
 2.80540557e-10  1.20000000e+00  0.00000000e+00  1.86473185e-01  3.94343522e-04  1.19920894e+00 
 2.82755797e-10  1.20000000e+00  0.00000000e+00  2.11129478e-01  3.71519647e-04  1.19919461e+00 
 2.85013234e-10  1.20000000e+00  0.00000000e+00  2.37614972e-01  3.48881135e-04  1.19917823e+00 
 2.87222402e-10  1.20000000e+00  0.00000000e+00  2.64766149e-01  3.27463352e-04  1.19916053e+00 
 2.89640572e-10  1.20000000e+00  0.00000000e+00  2.95774526e-01  3.04968068e-04  1.19913938e+00 
 2.92140586e-10  1.20000000e+00  0.00000000e+00  3.29136444e-01  2.82840068e-04  1.19911512e+00 
 2.92598745e-10  1.20000000e+00  0.00000000e+00  3.35386990e-01  2.78913732e-04  1.19911040e+00 
 2.92877822e-10  1.20000000e+00  0.00000000e+00  3.39214074e-01  2.76542166e-04  1.19910754e+00 
 2.93314681e-10  1.20000000e+00  0.00000000e+00  3.45235537e-01  2.72860689e-04  1.19910317e+00 
 2.93500004e-10  1.20000000e+00  0.00000000e+00  3.47800648e-01  2.71310482e-04  1.19910138e+00 
 2.93793932e-10  1.20000000e+00  0.00000000e+00  3.51881775e-01  2.68866229e-04  1.19909861e+00 
 2.94381787e-10  1.20000000e+00  0.00000000e+00  3.60093564e-01  2.64031917e-04  1.19909322e+00 
 2.95493253e-10  1.20000000e+00  0.00000000e+00  3.75786058e-01  2.55092064e-04  1.19908306e+00 
 2.96961678e-10  1.20000000e+00  0.00000000e+00  3.96840160e-01  2.43680829e-04  1.19906914e+00 
 2.98660546e-10  1.20000000e+00  0.00000000e+00  4.21638403e-01  2.31034361e-04  1.19905185e+00 
 3.00299891e-10  1.20000000e+00  0.00000000e+00  4.45988240e-01  2.19381749e-04  1.19903377e+00 
 3.01838069e-10  1.20000000e+00  0.00000000e+00  4.69187587e-01  2.08927680e-04  1.19901537e+00 
 3.03482035e-10  1.20000000e+00  0.00000000e+00  4.94333296e-01  1.98256434e-04  1.19899392e+00 
 3.05074929e-10  1.20000000e+00  0.00000000e+00  5.19018763e-01  1.88402708e-04  1.19897120e+00 
 3.07046135e-10  1.20000000e+00  0.00000000e+00  5.49964496e-01  1.76855867e-04  1.19894035e+00 
 3.08440904e-10  1.20000000e+00  0.00000000e+00  5.72102781e-01  1.69107441e-04  1.19891682e+00 
 3.09935044e-10  1.20000000e+00  0.00000000e+00  5.96017013e-01  1.61180210e-04  1.19889031e+00 
 3.11614442e-10  1.20000000e+00  0.00000000e+00  6.23108473e-01  1.52711648e-04  1.19885922e+00 
 3.13295635e-10  1.20000000e+00  0.00000000e+00  6.50414726e-01  1.44680767e-04  1.19882702e+00 
 3.15404466e-10  1.20000000e+00  0.00000000e+00  6.84862051e-01  1.35208873e-04  1.19878557e+00 
