 time            v(in1)          v(in2)          v(out)         
 0.00000000e+00  0.00000000e+00  0.00000000e+00  1.19057252e+00 
 1.00000000e-13  0.00000000e+00  0.00000000e+00  1.19057252e+00 
 2.00000000e-13  0.00000000e+00  0.00000000e+00  1.19057252e+00 
 4.00000000e-13  0.00000000e+00  0.00000000e+00  1.19057252e+00 
 8.00000000e-13  0.00000000e+00  0.00000000e+00  1.19057252e+00 
 1.60000000e-12  0.00000000e+00  0.00000000e+00  1.19057252e+00 
 3.20000000e-12  0.00000000e+00  0.00000000e+00  1.19057252e+00 
 6.40000000e-12  0.00000000e+00  0.00000000e+00  1.19057252e+00 
 1.28000000e-11  0.00000000e+00  0.00000000e+00  1.19057252e+00 
 2.28000000e-11  0.00000000e+00  0.00000000e+00  1.19057252e+00 
 3.28000000e-11  0.00000000e+00  0.00000000e+00  1.19057252e+00 
 4.28000000e-11  0.00000000e+00  0.00000000e+00  1.19057252e+00 
 5.28000000e-11  0.00000000e+00  0.00000000e+00  1.19057252e+00 
 6.28000000e-11  0.00000000e+00  0.00000000e+00  1.19057252e+00 
 7.28000000e-11  0.00000000e+00  0.00000000e+00  1.19057252e+00 
 8.28000000e-11  0.00000000e+00  0.00000000e+00  1.19057252e+00 
 9.28000000e-11  0.00000000e+00  0.00000000e+00  1.19057252e+00 
 1.00000000e-10  0.00000000e+00  0.00000000e+00  1.19057252e+00 
 1.00009246e-10  1.10957291e-04  0.00000000e+00  1.19057263e+00 
 1.00027739e-10  3.32871873e-04  0.00000000e+00  1.19057307e+00 
 1.00064725e-10  7.76701038e-04  0.00000000e+00  1.19057517e+00 
 1.00138697e-10  1.66435937e-03  0.00000000e+00  1.19058389e+00 
 1.00286640e-10  3.43967602e-03  0.00000000e+00  1.19061635e+00 
 1.00449526e-10  5.39431538e-03  0.00000000e+00  1.19067091e+00 
 1.00645751e-10  7.74900833e-03  0.00000000e+00  1.19075664e+00 
 1.00857570e-10  1.02908398e-02  0.00000000e+00  1.19086859e+00 
 1.01140255e-10  1.36830649e-02  0.00000000e+00  1.19104279e+00 
 1.01485824e-10  1.78298865e-02  0.00000000e+00  1.19128671e+00 
 1.01988662e-10  2.38639448e-02  0.00000000e+00  1.19168848e+00 
 1.02704093e-10  3.24491176e-02  0.00000000e+00  1.19232897e+00 
 1.03498454e-10  4.19814502e-02  0.00000000e+00  1.19310203e+00 
 1.04404750e-10  5.28569956e-02  0.00000000e+00  1.19402680e+00 
 1.05400400e-10  6.48048032e-02  0.00000000e+00  1.19506313e+00 
 1.06589593e-10  7.90751104e-02  0.00000000e+00  1.19629786e+00 
 1.07978097e-10  9.57371621e-02  0.00000000e+00  1.19770866e+00 
 1.09725101e-10  1.16701208e-01  0.00000000e+00  1.19941066e+00 
 1.10349308e-10  1.24191691e-01  0.00000000e+00  1.19999702e+00 
 1.10744609e-10  1.28935314e-01  0.00000000e+00  1.20041103e+00 
 1.11050438e-10  1.32605250e-01  0.00000000e+00  1.20072548e+00 
 1.11403025e-10  1.36836305e-01  0.00000000e+00  1.20108191e+00 
 1.12108201e-10  1.45298413e-01  0.00000000e+00  1.20177704e+00 
 1.13518553e-10  1.62222631e-01  0.00000000e+00  1.20310193e+00 
 1.16339256e-10  1.96071067e-01  0.00000000e+00  1.20551624e+00 
 1.19024014e-10  2.28288171e-01  0.00000000e+00  1.20755363e+00 
 1.22350856e-10  2.68210269e-01  0.00000000e+00  1.20977357e+00 
 1.25510172e-10  3.06122060e-01  0.00000000e+00  1.21159788e+00 
 1.27788283e-10  3.33459396e-01  0.00000000e+00  1.21275164e+00 
 1.29658338e-10  3.55900062e-01  0.00000000e+00  1.21359867e+00 
 1.31389836e-10  3.76678035e-01  0.00000000e+00  1.21430029e+00 
 1.33084338e-10  3.97012057e-01  0.00000000e+00  1.21490611e+00 
 1.34814854e-10  4.17778242e-01  0.00000000e+00  1.21543713e+00 
 1.36727712e-10  4.40732542e-01  0.00000000e+00  1.21591258e+00 
 1.38569224e-10  4.62830693e-01  0.00000000e+00  1.21625077e+00 
 1.40285933e-10  4.83431199e-01  0.00000000e+00  1.21645256e+00 
 1.41807095e-10  5.01685143e-01  0.00000000e+00  1.21653278e+00 
 1.43366392e-10  5.20396708e-01  0.00000000e+00  1.21651180e+00 
 1.45093802e-10  5.41125628e-01  0.00000000e+00  1.21636141e+00 
 1.46987093e-10  5.63845120e-01  0.00000000e+00  1.21603997e+00 
 1.49109832e-10  5.89317983e-01  0.00000000e+00  1.21548465e+00 
 1.51357518e-10  6.16290220e-01  0.00000000e+00  1.21467858e+00 
 1.54115921e-10  6.49391051e-01  0.00000000e+00  1.21340465e+00 
 1.56941967e-10  6.83303599e-01  0.00000000e+00  1.21181047e+00 
 1.60166480e-10  7.21997764e-01  0.00000000e+00  1.20968797e+00 
 1.62686090e-10  7.52233077e-01  0.00000000e+00  1.20783200e+00 
 1.64563704e-10  7.74764449e-01  0.00000000e+00  1.20633937e+00 
 1.65872484e-10  7.90469814e-01  0.00000000e+00  1.20523525e+00 
 1.67004013e-10  8.04048156e-01  0.00000000e+00  1.20422894e+00 
 1.68167207e-10  8.18006490e-01  0.00000000e+00  1.20313359e+00 
 1.69537451e-10  8.34449415e-01  0.00000000e+00  1.20174982e+00 
 1.70777133e-10  8.49325592e-01  0.00000000e+00  1.20040414e+00 
 1.71262709e-10  8.55152513e-01  0.00000000e+00  1.19986339e+00 
 1.71696138e-10  8.60353653e-01  0.00000000e+00  1.19939506e+00 
 1.72010814e-10  8.64129771e-01  0.00000000e+00  1.19904817e+00 
 1.72363680e-10  8.68364157e-01  0.00000000e+00  1.19865320e+00 
 1.73069411e-10  8.76832929e-01  0.00000000e+00  1.19784748e+00 
 1.74127708e-10  8.89532502e-01  0.00000000e+00  1.19661012e+00 
 1.75355803e-10  9.04269642e-01  0.00000000e+00  1.19514854e+00 
 1.76585140e-10  9.19021677e-01  0.00000000e+00  1.19367572e+00 
 1.77958471e-10  9.35501654e-01  0.00000000e+00  1.19203536e+00 
 1.79492500e-10  9.53910004e-01  0.00000000e+00  1.19022345e+00 
 1.81352469e-10  9.76229634e-01  0.00000000e+00  1.18807001e+00 
 1.83585136e-10  1.00302163e+00  0.00000000e+00  1.18556286e+00 
 1.86497093e-10  1.03796512e+00  0.00000000e+00  1.18243822e+00 
 1.89636575e-10  1.07563890e+00  0.00000000e+00  1.17926750e+00 
 1.92940358e-10  1.11528430e+00  0.00000000e+00  1.17616054e+00 
 1.96375588e-10  1.15650706e+00  0.00000000e+00  1.17318006e+00 
 2.00000000e-10  1.20000000e+00  0.00000000e+00  1.17030533e+00 
 2.00016556e-10  1.20000000e+00  0.00000000e+00  1.17029253e+00 
 2.00049669e-10  1.20000000e+00  0.00000000e+00  1.17026637e+00 
 2.00115893e-10  1.20000000e+00  0.00000000e+00  1.17021092e+00 
 2.00248343e-10  1.20000000e+00  0.00000000e+00  1.17008939e+00 
 2.00463379e-10  1.20000000e+00  0.00000000e+00  1.16986931e+00 
 2.00699811e-10  1.20000000e+00  0.00000000e+00  1.16960534e+00 
 2.00973577e-10  1.20000000e+00  0.00000000e+00  1.16928358e+00 
 2.01279311e-10  1.20000000e+00  0.00000000e+00  1.16891494e+00 
 2.01657728e-10  1.20000000e+00  0.00000000e+00  1.16845670e+00 
 2.02039355e-10  1.20000000e+00  0.00000000e+00  1.16800062e+00 
 2.02485629e-10  1.20000000e+00  0.00000000e+00  1.16748247e+00 
 2.02951741e-10  1.20000000e+00  0.00000000e+00  1.16696347e+00 
 2.03501072e-10  1.20000000e+00  0.00000000e+00  1.16638460e+00 
 2.04096543e-10  1.20000000e+00  0.00000000e+00  1.16579928e+00 
 2.04811860e-10  1.20000000e+00  0.00000000e+00  1.16515446e+00 
 2.05618343e-10  1.20000000e+00  0.00000000e+00  1.16450216e+00 
 2.06617664e-10  1.20000000e+00  0.00000000e+00  1.16379866e+00 
 2.07809749e-10  1.20000000e+00  0.00000000e+00  1.16310003e+00 
 2.09365320e-10  1.20000000e+00  0.00000000e+00  1.16239481e+00 
 2.10981828e-10  1.20000000e+00  0.00000000e+00  1.16188062e+00 
 2.12808822e-10  1.20000000e+00  0.00000000e+00  1.16152964e+00 
 2.14654520e-10  1.20000000e+00  0.00000000e+00  1.16138678e+00 
 2.16695051e-10  1.20000000e+00  0.00000000e+00  1.16143600e+00 
 2.18770250e-10  1.20000000e+00  0.00000000e+00  1.16167171e+00 
 2.21042410e-10  1.20000000e+00  0.00000000e+00  1.16210436e+00 
 2.23379027e-10  1.20000000e+00  0.00000000e+00  1.16270213e+00 
 2.25929656e-10  1.20000000e+00  0.00000000e+00  1.16349233e+00 
 2.28584335e-10  1.20000000e+00  0.00000000e+00  1.16443044e+00 
 2.31483904e-10  1.20000000e+00  0.00000000e+00  1.16555177e+00 
 2.34540333e-10  1.20000000e+00  0.00000000e+00  1.16680701e+00 
 2.37893958e-10  1.20000000e+00  0.00000000e+00  1.16823420e+00 
 2.41482794e-10  1.20000000e+00  0.00000000e+00  1.16978475e+00 
 2.45461767e-10  1.20000000e+00  0.00000000e+00  1.17149761e+00 
 2.49811043e-10  1.20000000e+00  0.00000000e+00  1.17333034e+00 
 2.54739636e-10  1.20000000e+00  0.00000000e+00  1.17532663e+00 
 2.60336480e-10  1.20000000e+00  0.00000000e+00  1.17746288e+00 
 2.67041250e-10  1.20000000e+00  0.00000000e+00  1.17981687e+00 
 2.74396333e-10  1.20000000e+00  0.00000000e+00  1.18213345e+00 
 2.82591030e-10  1.20000000e+00  0.00000000e+00  1.18439627e+00 
 2.91522950e-10  1.20000000e+00  0.00000000e+00  1.18650985e+00 
 3.00502488e-10  1.20000000e+00  0.00000000e+00  1.18830483e+00 
 3.10074266e-10  1.20000000e+00  0.00000000e+00  1.18990501e+00 
 3.19001694e-10  1.20000000e+00  0.00000000e+00  1.19114994e+00 
 3.28604244e-10  1.20000000e+00  0.00000000e+00  1.19226763e+00 
 3.38130321e-10  1.20000000e+00  0.00000000e+00  1.19318819e+00 
 3.48130321e-10  1.20000000e+00  0.00000000e+00  1.19398982e+00 
 3.58130321e-10  1.20000000e+00  0.00000000e+00  1.19465396e+00 
 3.68130321e-10  1.20000000e+00  0.00000000e+00  1.19520678e+00 
 3.78130321e-10  1.20000000e+00  0.00000000e+00  1.19566943e+00 
 3.88130321e-10  1.20000000e+00  0.00000000e+00  1.19605895e+00 
 3.98130321e-10  1.20000000e+00  0.00000000e+00  1.19638897e+00 
 4.08130321e-10  1.20000000e+00  0.00000000e+00  1.19667044e+00 
 4.18130321e-10  1.20000000e+00  0.00000000e+00  1.19691212e+00 
 4.28130321e-10  1.20000000e+00  0.00000000e+00  1.19712104e+00 
 4.38130321e-10  1.20000000e+00  0.00000000e+00  1.19730284e+00 
 4.48130321e-10  1.20000000e+00  0.00000000e+00  1.19746208e+00 
 4.58130321e-10  1.20000000e+00  0.00000000e+00  1.19760243e+00 
 4.68130321e-10  1.20000000e+00  0.00000000e+00  1.19772688e+00 
 4.78130321e-10  1.20000000e+00  0.00000000e+00  1.19783784e+00 
 4.88130321e-10  1.20000000e+00  0.00000000e+00  1.19793731e+00 
 4.98130321e-10  1.20000000e+00  0.00000000e+00  1.19802692e+00 
 5.08130321e-10  1.20000000e+00  0.00000000e+00  1.19810803e+00 
 5.18130321e-10  1.20000000e+00  0.00000000e+00  1.19818176e+00 
 5.28130321e-10  1.20000000e+00  0.00000000e+00  1.19824904e+00 
 5.38130321e-10  1.20000000e+00  0.00000000e+00  1.19831067e+00 
 5.48130321e-10  1.20000000e+00  0.00000000e+00  1.19836730e+00 
 5.58130321e-10  1.20000000e+00  0.00000000e+00  1.19841952e+00 
 5.68130321e-10  1.20000000e+00  0.00000000e+00  1.19846779e+00 
 5.78130321e-10  1.20000000e+00  0.00000000e+00  1.19851255e+00 
 5.88130321e-10  1.20000000e+00  0.00000000e+00  1.19855414e+00 
 5.98130321e-10  1.20000000e+00  0.00000000e+00  1.19859288e+00 
 6.08130321e-10  1.20000000e+00  0.00000000e+00  1.19862904e+00 
 6.18130321e-10  1.20000000e+00  0.00000000e+00  1.19866286e+00 
 6.28130321e-10  1.20000000e+00  0.00000000e+00  1.19869455e+00 
 6.38130321e-10  1.20000000e+00  0.00000000e+00  1.19872429e+00 
 6.48130321e-10  1.20000000e+00  0.00000000e+00  1.19875225e+00 
 6.58130321e-10  1.20000000e+00  0.00000000e+00  1.19877857e+00 
 6.68130321e-10  1.20000000e+00  0.00000000e+00  1.19880339e+00 
 6.78130321e-10  1.20000000e+00  0.00000000e+00  1.19882682e+00 
 6.88130321e-10  1.20000000e+00  0.00000000e+00  1.19884896e+00 
 6.98130321e-10  1.20000000e+00  0.00000000e+00  1.19886992e+00 
 7.08130321e-10  1.20000000e+00  0.00000000e+00  1.19888978e+00 
 7.18130321e-10  1.20000000e+00  0.00000000e+00  1.19890861e+00 
 7.28130321e-10  1.20000000e+00  0.00000000e+00  1.19892648e+00 
 7.38130321e-10  1.20000000e+00  0.00000000e+00  1.19894347e+00 
 7.48130321e-10  1.20000000e+00  0.00000000e+00  1.19895963e+00 
 7.58130321e-10  1.20000000e+00  0.00000000e+00  1.19897501e+00 
 7.68130321e-10  1.20000000e+00  0.00000000e+00  1.19898966e+00 
 7.78130321e-10  1.20000000e+00  0.00000000e+00  1.19900363e+00 
 7.88130321e-10  1.20000000e+00  0.00000000e+00  1.19901697e+00 
 7.98130321e-10  1.20000000e+00  0.00000000e+00  1.19902970e+00 
 8.08130321e-10  1.20000000e+00  0.00000000e+00  1.19904186e+00 
 8.18130321e-10  1.20000000e+00  0.00000000e+00  1.19905349e+00 
 8.28130321e-10  1.20000000e+00  0.00000000e+00  1.19906461e+00 
 8.38130321e-10  1.20000000e+00  0.00000000e+00  1.19907527e+00 
 8.48130321e-10  1.20000000e+00  0.00000000e+00  1.19908547e+00 
 8.58130321e-10  1.20000000e+00  0.00000000e+00  1.19909525e+00 
 8.68130321e-10  1.20000000e+00  0.00000000e+00  1.19910462e+00 
 8.78130321e-10  1.20000000e+00  0.00000000e+00  1.19911362e+00 
 8.88130321e-10  1.20000000e+00  0.00000000e+00  1.19912225e+00 
 8.98130321e-10  1.20000000e+00  0.00000000e+00  1.19913054e+00 
 9.08130321e-10  1.20000000e+00  0.00000000e+00  1.19913851e+00 
 9.18130321e-10  1.20000000e+00  0.00000000e+00  1.19914616e+00 
 9.28130321e-10  1.20000000e+00  0.00000000e+00  1.19915352e+00 
 9.38130321e-10  1.20000000e+00  0.00000000e+00  1.19916061e+00 
 9.48130321e-10  1.20000000e+00  0.00000000e+00  1.19916743e+00 
 9.58130321e-10  1.20000000e+00  0.00000000e+00  1.19917399e+00 
 9.68130321e-10  1.20000000e+00  0.00000000e+00  1.19918031e+00 
 9.78130321e-10  1.20000000e+00  0.00000000e+00  1.19918640e+00 
 9.88130321e-10  1.20000000e+00  0.00000000e+00  1.19919226e+00 
 9.98130321e-10  1.20000000e+00  0.00000000e+00  1.19919792e+00 
 1.00813032e-09  1.20000000e+00  0.00000000e+00  1.19920337e+00 
 1.01813032e-09  1.20000000e+00  0.00000000e+00  1.19920863e+00 
 1.02813032e-09  1.20000000e+00  0.00000000e+00  1.19921370e+00 
 1.03813032e-09  1.20000000e+00  0.00000000e+00  1.19921860e+00 
 1.04813032e-09  1.20000000e+00  0.00000000e+00  1.19922333e+00 
 1.05813032e-09  1.20000000e+00  0.00000000e+00  1.19922789e+00 
 1.06813032e-09  1.20000000e+00  0.00000000e+00  1.19923230e+00 
 1.07813032e-09  1.20000000e+00  0.00000000e+00  1.19923657e+00 
 1.08813032e-09  1.20000000e+00  0.00000000e+00  1.19924068e+00 
 1.09813032e-09  1.20000000e+00  0.00000000e+00  1.19924466e+00 
 1.10000000e-09  1.20000000e+00  0.00000000e+00  1.19924539e+00 
 1.10000315e-09  1.20000000e+00  3.78163173e-05  1.19924540e+00 
 1.10000945e-09  1.20000000e+00  1.13448952e-04  1.19924543e+00 
 1.10002206e-09  1.20000000e+00  2.64714221e-04  1.19924554e+00 
 1.10004727e-09  1.20000000e+00  5.67244760e-04  1.19924604e+00 
 1.10009769e-09  1.20000000e+00  1.17230584e-03  1.19924806e+00 
 1.10019854e-09  1.20000000e+00  2.38242799e-03  1.19925600e+00 
 1.10036064e-09  1.20000000e+00  4.32762046e-03  1.19927887e+00 
 1.10053394e-09  1.20000000e+00  6.40733370e-03  1.19931596e+00 
 1.10074174e-09  1.20000000e+00  8.90090679e-03  1.19937586e+00 
 1.10097554e-09  1.20000000e+00  1.17064795e-02  1.19946125e+00 
 1.10128739e-09  1.20000000e+00  1.54487353e-02  1.19960099e+00 
 1.10167937e-09  1.20000000e+00  2.01524303e-02  1.19981214e+00 
 1.10210086e-09  1.20000000e+00  2.52103262e-02  1.20008034e+00 
 1.10254759e-09  1.20000000e+00  3.05710569e-02  1.20041202e+00 
 1.10293798e-09  1.20000000e+00  3.52557779e-02  1.20072380e+00 
 1.10334488e-09  1.20000000e+00  4.01385039e-02  1.20106538e+00 
 1.10415866e-09  1.20000000e+00  4.99039560e-02  1.20178285e+00 
 1.10511629e-09  1.20000000e+00  6.13954426e-02  1.20266246e+00 
 1.10624067e-09  1.20000000e+00  7.48880007e-02  1.20371239e+00 
 1.10744006e-09  1.20000000e+00  8.92806834e-02  1.20482774e+00 
 1.10894384e-09  1.20000000e+00  1.07326085e-01  1.20619609e+00 
 1.11074325e-09  1.20000000e+00  1.28918951e-01  1.20777266e+00 
 1.11325229e-09  1.20000000e+00  1.59027443e-01  1.20985008e+00 
 1.11658373e-09  1.20000000e+00  1.99004751e-01  1.21240047e+00 
 1.12011431e-09  1.20000000e+00  2.41371682e-01  1.21487472e+00 
 1.12264172e-09  1.20000000e+00  2.71700674e-01  1.21652300e+00 
 1.12427931e-09  1.20000000e+00  2.91351738e-01  1.21754452e+00 
 1.12571379e-09  1.20000000e+00  3.08565491e-01  1.21841303e+00 
 1.12712932e-09  1.20000000e+00  3.25551839e-01  1.21924857e+00 
 1.12853966e-09  1.20000000e+00  3.42475875e-01  1.22006210e+00 
 1.13009362e-09  1.20000000e+00  3.61123439e-01  1.22093927e+00 
 1.13175822e-09  1.20000000e+00  3.81098649e-01  1.22185967e+00 
 1.13369406e-09  1.20000000e+00  4.04328715e-01  1.22290946e+00 
 1.13493224e-09  1.20000000e+00  4.19186916e-01  1.22357132e+00 
 1.13633283e-09  1.20000000e+00  4.35993916e-01  1.22431309e+00 
 1.13799761e-09  1.20000000e+00  4.55971308e-01  1.22518766e+00 
 1.13971522e-09  1.20000000e+00  4.76582668e-01  1.22608470e+00 
 1.14164930e-09  1.20000000e+00  4.99791588e-01  1.22709199e+00 
 1.14393751e-09  1.20000000e+00  5.27250178e-01  1.22828460e+00 
 1.14640071e-09  1.20000000e+00  5.56808461e-01  1.22957363e+00 
 1.14889667e-09  1.20000000e+00  5.86760029e-01  1.23088559e+00 
 1.15077342e-09  1.20000000e+00  6.09281044e-01  1.23187140e+00 
 1.15230969e-09  1.20000000e+00  6.27716226e-01  1.23267170e+00 
 1.15379272e-09  1.20000000e+00  6.45512646e-01  1.23343035e+00 
 1.15545393e-09  1.20000000e+00  6.65447187e-01  1.23424981e+00 
 1.15706309e-09  1.20000000e+00  6.84757065e-01  1.23499300e+00 
 1.15867069e-09  1.20000000e+00  7.04048242e-01  1.23565611e+00 
 1.16014255e-09  1.20000000e+00  7.21710598e-01  1.23615955e+00 
 1.16152415e-09  1.20000000e+00  7.38289770e-01  1.23650620e+00 
 1.16284352e-09  1.20000000e+00  7.54122237e-01  1.23668610e+00 
 1.16414411e-09  1.20000000e+00  7.69729300e-01  1.23667958e+00 
 1.16557686e-09  1.20000000e+00  7.86922317e-01  1.23641334e+00 
 1.16691229e-09  1.20000000e+00  8.02947523e-01  1.23587596e+00 
 1.16830528e-09  1.20000000e+00  8.19663381e-01  1.23496708e+00 
 1.16961581e-09  1.20000000e+00  8.35389700e-01  1.23374006e+00 
 1.17095512e-09  1.20000000e+00  8.51461479e-01  1.23206185e+00 
 1.17222637e-09  1.20000000e+00  8.66716380e-01  1.23002565e+00 
 1.17353898e-09  1.20000000e+00  8.82467736e-01  1.22742718e+00 
 1.17490391e-09  1.20000000e+00  8.98846921e-01  1.22416196e+00 
 1.17636201e-09  1.20000000e+00  9.16344160e-01  1.22003288e+00 
 1.17763238e-09  1.20000000e+00  9.31588568e-01  1.21590587e+00 
 1.17887232e-09  1.20000000e+00  9.46467796e-01  1.21141512e+00 
 1.18024266e-09  1.20000000e+00  9.62911883e-01  1.20593489e+00 
 1.18174099e-09  1.20000000e+00  9.80891920e-01  1.19934128e+00 
 1.18343152e-09  1.20000000e+00  1.00117822e+00  1.19117676e+00 
 1.18507154e-09  1.20000000e+00  1.02085848e+00  1.18255308e+00 
 1.18665000e-09  1.20000000e+00  1.03979997e+00  1.17363538e+00 
 1.18834577e-09  1.20000000e+00  1.06014922e+00  1.16342301e+00 
 1.18990782e-09  1.20000000e+00  1.07889379e+00  1.15347606e+00 
 1.19149665e-09  1.20000000e+00  1.09795981e+00  1.14286941e+00 
 1.19300831e-09  1.20000000e+00  1.11609970e+00  1.13235580e+00 
 1.19459547e-09  1.20000000e+00  1.13514566e+00  1.12091118e+00 
 1.19616556e-09  1.20000000e+00  1.15398670e+00  1.10921468e+00 
 1.19791144e-09  1.20000000e+00  1.17493733e+00  1.09581045e+00 
 1.19953167e-09  1.20000000e+00  1.19438004e+00  1.08302890e+00 
 1.20000000e-09  1.20000000e+00  1.20000000e+00  1.07927933e+00 
 1.20001192e-09  1.20000000e+00  1.20000000e+00  1.07918346e+00 
 1.20003575e-09  1.20000000e+00  1.20000000e+00  1.07899153e+00 
 1.20008342e-09  1.20000000e+00  1.20000000e+00  1.07860668e+00 
 1.20017876e-09  1.20000000e+00  1.20000000e+00  1.07783310e+00 
 1.20036944e-09  1.20000000e+00  1.20000000e+00  1.07627189e+00 
 1.20065906e-09  1.20000000e+00  1.20000000e+00  1.07386846e+00 
 1.20096952e-09  1.20000000e+00  1.20000000e+00  1.07125600e+00 
 1.20131095e-09  1.20000000e+00  1.20000000e+00  1.06834798e+00 
 1.20166247e-09  1.20000000e+00  1.20000000e+00  1.06532078e+00 
 1.20205387e-09  1.20000000e+00  1.20000000e+00  1.06191668e+00 
 1.20248102e-09  1.20000000e+00  1.20000000e+00  1.05816760e+00 
 1.20296241e-09  1.20000000e+00  1.20000000e+00  1.05390660e+00 
 1.20349579e-09  1.20000000e+00  1.20000000e+00  1.04914758e+00 
 1.20410876e-09  1.20000000e+00  1.20000000e+00  1.04363665e+00 
 1.20481039e-09  1.20000000e+00  1.20000000e+00  1.03728181e+00 
 1.20564537e-09  1.20000000e+00  1.20000000e+00  1.02965519e+00 
 1.20662770e-09  1.20000000e+00  1.20000000e+00  1.02060461e+00 
 1.20791577e-09  1.20000000e+00  1.20000000e+00  1.00863750e+00 
 1.20925421e-09  1.20000000e+00  1.20000000e+00  9.96098700e-01 
 1.21075341e-09  1.20000000e+00  1.20000000e+00  9.81946636e-01 
 1.21225509e-09  1.20000000e+00  1.20000000e+00  9.67673711e-01 
