 time            v(in1)          v(in2)          v(out)         
 0.00000000e+00  0.00000000e+00  0.00000000e+00  1.14169899e+00 
 1.00000000e-13  0.00000000e+00  0.00000000e+00  1.14169899e+00 
 2.00000000e-13  0.00000000e+00  0.00000000e+00  1.14169899e+00 
 4.00000000e-13  0.00000000e+00  0.00000000e+00  1.14169899e+00 
 8.00000000e-13  0.00000000e+00  0.00000000e+00  1.14169899e+00 
 1.60000000e-12  0.00000000e+00  0.00000000e+00  1.14169899e+00 
 3.20000000e-12  0.00000000e+00  0.00000000e+00  1.14169899e+00 
 6.40000000e-12  0.00000000e+00  0.00000000e+00  1.14169899e+00 
 1.28000000e-11  0.00000000e+00  0.00000000e+00  1.14169899e+00 
 2.28000000e-11  0.00000000e+00  0.00000000e+00  1.14169899e+00 
 3.28000000e-11  0.00000000e+00  0.00000000e+00  1.14169899e+00 
 4.28000000e-11  0.00000000e+00  0.00000000e+00  1.14169899e+00 
 5.28000000e-11  0.00000000e+00  0.00000000e+00  1.14169899e+00 
 6.28000000e-11  0.00000000e+00  0.00000000e+00  1.14169899e+00 
 7.28000000e-11  0.00000000e+00  0.00000000e+00  1.14169899e+00 
 8.28000000e-11  0.00000000e+00  0.00000000e+00  1.14169899e+00 
 9.28000000e-11  0.00000000e+00  0.00000000e+00  1.14169899e+00 
 1.00000000e-10  0.00000000e+00  0.00000000e+00  1.14169899e+00 
 1.00009068e-10  1.08811940e-04  0.00000000e+00  1.14169914e+00 
 1.00027203e-10  3.26435821e-04  0.00000000e+00  1.14169974e+00 
 1.00063474e-10  7.61683583e-04  0.00000000e+00  1.14170263e+00 
 1.00136015e-10  1.63217911e-03  0.00000000e+00  1.14171464e+00 
 1.00281098e-10  3.37317015e-03  0.00000000e+00  1.14175971e+00 
 1.00446056e-10  5.35266682e-03  0.00000000e+00  1.14183897e+00 
 1.00640017e-10  7.68020404e-03  0.00000000e+00  1.14196188e+00 
 1.00851840e-10  1.02220814e-02  0.00000000e+00  1.14212545e+00 
 1.01127261e-10  1.35271316e-02  0.00000000e+00  1.14237506e+00 
 1.01466120e-10  1.75934434e-02  0.00000000e+00  1.14272910e+00 
 1.01945639e-10  2.33476705e-02  0.00000000e+00  1.14330056e+00 
 1.02617645e-10  3.14117427e-02  0.00000000e+00  1.14420738e+00 
 1.03305187e-10  3.96622398e-02  0.00000000e+00  1.14522907e+00 
 1.04121754e-10  4.94610509e-02  0.00000000e+00  1.14652521e+00 
 1.04976837e-10  5.97220401e-02  0.00000000e+00  1.14794549e+00 
 1.06014787e-10  7.21774412e-02  0.00000000e+00  1.14972012e+00 
 1.07152072e-10  8.58248585e-02  0.00000000e+00  1.15169789e+00 
 1.08554417e-10  1.02653010e-01  0.00000000e+00  1.15415256e+00 
 1.10157767e-10  1.21893204e-01  0.00000000e+00  1.15695314e+00 
 1.12180144e-10  1.46161728e-01  0.00000000e+00  1.16044804e+00 
 1.14573783e-10  1.74885395e-01  0.00000000e+00  1.16449758e+00 
 1.17264176e-10  2.07170113e-01  0.00000000e+00  1.16890896e+00 
 1.20648724e-10  2.47784689e-01  0.00000000e+00  1.17421224e+00 
 1.23196453e-10  2.78357441e-01  0.00000000e+00  1.17798899e+00 
 1.24876383e-10  2.98516598e-01  0.00000000e+00  1.18035804e+00 
 1.26311565e-10  3.15738785e-01  0.00000000e+00  1.18229200e+00 
 1.27719284e-10  3.32631406e-01  0.00000000e+00  1.18409617e+00 
 1.28393613e-10  3.40723354e-01  0.00000000e+00  1.18492439e+00 
 1.28803716e-10  3.45644593e-01  0.00000000e+00  1.18541832e+00 
 1.29203690e-10  3.50444279e-01  0.00000000e+00  1.18589084e+00 
 1.29640237e-10  3.55682847e-01  0.00000000e+00  1.18639518e+00 
 1.30314393e-10  3.63772711e-01  0.00000000e+00  1.18714964e+00 
 1.31662703e-10  3.79952440e-01  0.00000000e+00  1.18856232e+00 
 1.33286473e-10  3.99437671e-01  0.00000000e+00  1.19007227e+00 
 1.34807211e-10  4.17686530e-01  0.00000000e+00  1.19126701e+00 
 1.36258364e-10  4.35100369e-01  0.00000000e+00  1.19217689e+00 
 1.37913299e-10  4.54959590e-01  0.00000000e+00  1.19289474e+00 
 1.39499427e-10  4.73993124e-01  0.00000000e+00  1.19321897e+00 
 1.41244340e-10  4.94932078e-01  0.00000000e+00  1.19311150e+00 
 1.42909440e-10  5.14913284e-01  0.00000000e+00  1.19250677e+00 
 1.44670783e-10  5.36049395e-01  0.00000000e+00  1.19128060e+00 
 1.46404240e-10  5.56850884e-01  0.00000000e+00  1.18943618e+00 
 1.48230856e-10  5.78770274e-01  0.00000000e+00  1.18675415e+00 
 1.50026379e-10  6.00316548e-01  0.00000000e+00  1.18332473e+00 
 1.51851789e-10  6.22221468e-01  0.00000000e+00  1.17897029e+00 
 1.53591185e-10  6.43094221e-01  0.00000000e+00  1.17394187e+00 
 1.55275152e-10  6.63301819e-01  0.00000000e+00  1.16818638e+00 
 1.56856575e-10  6.82278901e-01  0.00000000e+00  1.16191926e+00 
 1.58405412e-10  7.00864950e-01  0.00000000e+00  1.15490979e+00 
 1.59972661e-10  7.19671937e-01  0.00000000e+00  1.14688674e+00 
 1.61702990e-10  7.40435884e-01  0.00000000e+00  1.13689626e+00 
 1.63268408e-10  7.59220896e-01  0.00000000e+00  1.12680826e+00 
 1.64970790e-10  7.79649484e-01  0.00000000e+00  1.11467999e+00 
 1.66598619e-10  7.99183425e-01  0.00000000e+00  1.10193796e+00 
 1.68533426e-10  8.22401115e-01  0.00000000e+00  1.08532765e+00 
 1.70109610e-10  8.41315324e-01  0.00000000e+00  1.07062018e+00 
 1.71664314e-10  8.59971773e-01  0.00000000e+00  1.05508342e+00 
 1.73383617e-10  8.80603405e-01  0.00000000e+00  1.03672463e+00 
 1.75215090e-10  9.02581074e-01  0.00000000e+00  1.01583917e+00 
 1.76833934e-10  9.22007208e-01  0.00000000e+00  9.96275621e-01 
 1.78256229e-10  9.39074744e-01  0.00000000e+00  9.78263851e-01 
 1.79911588e-10  9.58939052e-01  0.00000000e+00  9.56354094e-01 
 1.81572550e-10  9.78870595e-01  0.00000000e+00  9.33362957e-01 
 1.83926901e-10  1.00712281e+00  0.00000000e+00  8.99076562e-01 
 1.86634581e-10  1.03961498e+00  0.00000000e+00  8.57228040e-01 
 1.89924138e-10  1.07908966e+00  0.00000000e+00  8.03026609e-01 
 1.93199666e-10  1.11839599e+00  0.00000000e+00  7.45602888e-01 
 1.96321614e-10  1.15585937e+00  0.00000000e+00  6.87965571e-01 
 1.99459047e-10  1.19350856e+00  0.00000000e+00  6.27626415e-01 
 2.00000000e-10  1.20000000e+00  0.00000000e+00  6.17011845e-01 
 2.00006226e-10  1.20000000e+00  0.00000000e+00  6.16889317e-01 
 2.00018678e-10  1.20000000e+00  0.00000000e+00  6.16644131e-01 
 2.00043582e-10  1.20000000e+00  0.00000000e+00  6.16153001e-01 
 2.00093390e-10  1.20000000e+00  0.00000000e+00  6.15167875e-01 
 2.00193006e-10  1.20000000e+00  0.00000000e+00  6.13187376e-01 
 2.00392237e-10  1.20000000e+00  0.00000000e+00  6.09193529e-01 
 2.00683635e-10  1.20000000e+00  0.00000000e+00  6.03296187e-01 
 2.00994318e-10  1.20000000e+00  0.00000000e+00  5.96963419e-01 
 2.01331658e-10  1.20000000e+00  0.00000000e+00  5.90060956e-01 
 2.01686824e-10  1.20000000e+00  0.00000000e+00  5.82782954e-01 
 2.02089355e-10  1.20000000e+00  0.00000000e+00  5.74536659e-01 
 2.02528730e-10  1.20000000e+00  0.00000000e+00  5.65550924e-01 
 2.03032593e-10  1.20000000e+00  0.00000000e+00  5.55277653e-01 
 2.03596024e-10  1.20000000e+00  0.00000000e+00  5.43840240e-01 
 2.04257548e-10  1.20000000e+00  0.00000000e+00  5.30491117e-01 
 2.05027043e-10  1.20000000e+00  0.00000000e+00  5.15084983e-01 
 2.05970998e-10  1.20000000e+00  0.00000000e+00  4.96384877e-01 
 2.07145468e-10  1.20000000e+00  0.00000000e+00  4.73458145e-01 
 2.08735367e-10  1.20000000e+00  0.00000000e+00  4.43099754e-01 
 2.10793520e-10  1.20000000e+00  0.00000000e+00  4.05125244e-01 
 2.12809382e-10  1.20000000e+00  0.00000000e+00  3.69596134e-01 
 2.14768829e-10  1.20000000e+00  0.00000000e+00  3.36859004e-01 
 2.16859209e-10  1.20000000e+00  0.00000000e+00  3.04084633e-01 
 2.18913996e-10  1.20000000e+00  0.00000000e+00  2.74160040e-01 
 2.20690052e-10  1.20000000e+00  0.00000000e+00  2.50163793e-01 
 2.22289207e-10  1.20000000e+00  0.00000000e+00  2.30030072e-01 
 2.24104214e-10  1.20000000e+00  0.00000000e+00  2.08823481e-01 
 2.25746738e-10  1.20000000e+00  0.00000000e+00  1.91082107e-01 
 2.27550523e-10  1.20000000e+00  0.00000000e+00  1.73107641e-01 
 2.29527259e-10  1.20000000e+00  0.00000000e+00  1.55120588e-01 
 2.31556773e-10  1.20000000e+00  0.00000000e+00  1.38390742e-01 
 2.33539923e-10  1.20000000e+00  0.00000000e+00  1.23622735e-01 
 2.35647770e-10  1.20000000e+00  0.00000000e+00  1.09505687e-01 
 2.37572559e-10  1.20000000e+00  0.00000000e+00  9.79223037e-02 
 2.39571597e-10  1.20000000e+00  0.00000000e+00  8.70989811e-02 
 2.41504037e-10  1.20000000e+00  0.00000000e+00  7.77061069e-02 
 2.43531560e-10  1.20000000e+00  0.00000000e+00  6.88786653e-02 
 2.45516537e-10  1.20000000e+00  0.00000000e+00  6.11622472e-02 
 2.47591984e-10  1.20000000e+00  0.00000000e+00  5.39772406e-02 
 2.49651396e-10  1.20000000e+00  0.00000000e+00  4.76511229e-02 
 2.51805098e-10  1.20000000e+00  0.00000000e+00  4.18004882e-02 
 2.53967380e-10  1.20000000e+00  0.00000000e+00  3.66282833e-02 
 2.56230784e-10  1.20000000e+00  0.00000000e+00  3.18808563e-02 
 2.58526402e-10  1.20000000e+00  0.00000000e+00  2.76803297e-02 
 2.60933747e-10  1.20000000e+00  0.00000000e+00  2.38571458e-02 
 2.63397913e-10  1.20000000e+00  0.00000000e+00  2.04812512e-02 
 2.65989085e-10  1.20000000e+00  0.00000000e+00  1.74381114e-02 
 2.68664510e-10  1.20000000e+00  0.00000000e+00  1.47642667e-02 
 2.71488319e-10  1.20000000e+00  0.00000000e+00  1.23811672e-02 
 2.74428983e-10  1.20000000e+00  0.00000000e+00  1.03042147e-02 
 2.77547833e-10  1.20000000e+00  0.00000000e+00  8.47832427e-03 
 2.80824654e-10  1.20000000e+00  0.00000000e+00  6.90577244e-03 
 2.84321695e-10  1.20000000e+00  0.00000000e+00  5.54624091e-03 
 2.88019478e-10  1.20000000e+00  0.00000000e+00  4.39765358e-03 
 2.92025656e-10  1.20000000e+00  0.00000000e+00  3.41985193e-03 
 2.96317242e-10  1.20000000e+00  0.00000000e+00  2.61246216e-03 
 3.00961001e-10  1.20000000e+00  0.00000000e+00  1.95258269e-03 
 3.06020105e-10  1.20000000e+00  0.00000000e+00  1.42269508e-03 
 3.11587529e-10  1.20000000e+00  0.00000000e+00  1.00529874e-03 
 3.17758086e-10  1.20000000e+00  0.00000000e+00  6.85679030e-04 
 3.24678786e-10  1.20000000e+00  0.00000000e+00  4.48431264e-04 
 3.32529039e-10  1.20000000e+00  0.00000000e+00  2.79617844e-04 
 3.41582430e-10  1.20000000e+00  0.00000000e+00  1.65534604e-04 
 3.51582430e-10  1.20000000e+00  0.00000000e+00  9.70008016e-05 
 3.61582430e-10  1.20000000e+00  0.00000000e+00  6.12817608e-05 
 3.71582430e-10  1.20000000e+00  0.00000000e+00  4.26651171e-05 
 3.81582430e-10  1.20000000e+00  0.00000000e+00  3.29617591e-05 
 3.91582430e-10  1.20000000e+00  0.00000000e+00  2.79042866e-05 
 4.01582430e-10  1.20000000e+00  0.00000000e+00  2.52672235e-05 
 4.11582430e-10  1.20000000e+00  0.00000000e+00  2.38931838e-05 
 4.21582430e-10  1.20000000e+00  0.00000000e+00  2.31765102e-05 
 4.31582430e-10  1.20000000e+00  0.00000000e+00  2.28031370e-05 
 4.41582430e-10  1.20000000e+00  0.00000000e+00  2.26082977e-05 
 4.51582430e-10  1.20000000e+00  0.00000000e+00  2.25068098e-05 
 4.61582430e-10  1.20000000e+00  0.00000000e+00  2.24538104e-05 
 4.71582430e-10  1.20000000e+00  0.00000000e+00  2.24262128e-05 
 4.81582430e-10  1.20000000e+00  0.00000000e+00  2.24117837e-05 
 4.91582430e-10  1.20000000e+00  0.00000000e+00  2.24042744e-05 
 5.01582430e-10  1.20000000e+00  0.00000000e+00  2.24003407e-05 
 5.11582430e-10  1.20000000e+00  0.00000000e+00  2.23982957e-05 
 5.21582430e-10  1.20000000e+00  0.00000000e+00  2.23972209e-05 
 5.31582430e-10  1.20000000e+00  0.00000000e+00  2.23966633e-05 
 5.41582430e-10  1.20000000e+00  0.00000000e+00  2.23963686e-05 
 5.51582430e-10  1.20000000e+00  0.00000000e+00  2.23962164e-05 
 5.61582430e-10  1.20000000e+00  0.00000000e+00  2.23961351e-05 
 5.71582430e-10  1.20000000e+00  0.00000000e+00  2.23960935e-05 
 5.81582430e-10  1.20000000e+00  0.00000000e+00  2.23960708e-05 
 5.91582430e-10  1.20000000e+00  0.00000000e+00  2.23960595e-05 
 6.01582430e-10  1.20000000e+00  0.00000000e+00  2.23960530e-05 
 6.11582430e-10  1.20000000e+00  0.00000000e+00  2.23960500e-05 
 6.21582430e-10  1.20000000e+00  0.00000000e+00  2.23960481e-05 
 6.31582430e-10  1.20000000e+00  0.00000000e+00  2.23960473e-05 
 6.41582430e-10  1.20000000e+00  0.00000000e+00  2.23960467e-05 
 6.51582430e-10  1.20000000e+00  0.00000000e+00  2.23960465e-05 
 6.61582430e-10  1.20000000e+00  0.00000000e+00  2.23960463e-05 
 6.71582430e-10  1.20000000e+00  0.00000000e+00  2.23960462e-05 
 6.81582430e-10  1.20000000e+00  0.00000000e+00  2.23960462e-05 
 6.91582430e-10  1.20000000e+00  0.00000000e+00  2.23960462e-05 
 7.01582430e-10  1.20000000e+00  0.00000000e+00  2.23960461e-05 
 7.11582430e-10  1.20000000e+00  0.00000000e+00  2.23960461e-05 
 7.21582430e-10  1.20000000e+00  0.00000000e+00  2.23960461e-05 
 7.31582430e-10  1.20000000e+00  0.00000000e+00  2.23960461e-05 
 7.41582430e-10  1.20000000e+00  0.00000000e+00  2.23960461e-05 
 7.51582430e-10  1.20000000e+00  0.00000000e+00  2.23960461e-05 
 7.61582430e-10  1.20000000e+00  0.00000000e+00  2.23960461e-05 
 7.71582430e-10  1.20000000e+00  0.00000000e+00  2.23960461e-05 
 7.81582430e-10  1.20000000e+00  0.00000000e+00  2.23960461e-05 
 7.91582430e-10  1.20000000e+00  0.00000000e+00  2.23960461e-05 
 8.01582430e-10  1.20000000e+00  0.00000000e+00  2.23960461e-05 
 8.11582430e-10  1.20000000e+00  0.00000000e+00  2.23960461e-05 
 8.21582430e-10  1.20000000e+00  0.00000000e+00  2.23960461e-05 
 8.31582430e-10  1.20000000e+00  0.00000000e+00  2.23960461e-05 
 8.41582430e-10  1.20000000e+00  0.00000000e+00  2.23960461e-05 
 8.51582430e-10  1.20000000e+00  0.00000000e+00  2.23960461e-05 
 8.61582430e-10  1.20000000e+00  0.00000000e+00  2.23960461e-05 
 8.71582430e-10  1.20000000e+00  0.00000000e+00  2.23960461e-05 
 8.81582430e-10  1.20000000e+00  0.00000000e+00  2.23960461e-05 
 8.91582430e-10  1.20000000e+00  0.00000000e+00  2.23960461e-05 
 9.01582430e-10  1.20000000e+00  0.00000000e+00  2.23960461e-05 
 9.11582430e-10  1.20000000e+00  0.00000000e+00  2.23960461e-05 
 9.21582430e-10  1.20000000e+00  0.00000000e+00  2.23960461e-05 
 9.31582430e-10  1.20000000e+00  0.00000000e+00  2.23960461e-05 
 9.41582430e-10  1.20000000e+00  0.00000000e+00  2.23960461e-05 
 9.51582430e-10  1.20000000e+00  0.00000000e+00  2.23960461e-05 
 9.61582430e-10  1.20000000e+00  0.00000000e+00  2.23960461e-05 
 9.71582430e-10  1.20000000e+00  0.00000000e+00  2.23960461e-05 
 9.81582430e-10  1.20000000e+00  0.00000000e+00  2.23960461e-05 
 9.91582430e-10  1.20000000e+00  0.00000000e+00  2.23960461e-05 
 1.00158243e-09  1.20000000e+00  0.00000000e+00  2.23960461e-05 
 1.01158243e-09  1.20000000e+00  0.00000000e+00  2.23960461e-05 
 1.02158243e-09  1.20000000e+00  0.00000000e+00  2.23960461e-05 
 1.03158243e-09  1.20000000e+00  0.00000000e+00  2.23960461e-05 
 1.04158243e-09  1.20000000e+00  0.00000000e+00  2.23960461e-05 
 1.05158243e-09  1.20000000e+00  0.00000000e+00  2.23960461e-05 
 1.06158243e-09  1.20000000e+00  0.00000000e+00  2.23960461e-05 
 1.07158243e-09  1.20000000e+00  0.00000000e+00  2.23960461e-05 
 1.08158243e-09  1.20000000e+00  0.00000000e+00  2.23960461e-05 
 1.09158243e-09  1.20000000e+00  0.00000000e+00  2.23960461e-05 
 1.10000000e-09  1.20000000e+00  0.00000000e+00  2.23960461e-05 
 1.10000974e-09  1.20000000e+00  1.16934196e-04  2.25025941e-05 
 1.10002923e-09  1.20000000e+00  3.50802587e-04  2.29221157e-05 
 1.10006821e-09  1.20000000e+00  8.18539370e-04  2.49243956e-05 
 1.10014617e-09  1.20000000e+00  1.75401294e-03  3.29201130e-05 
 1.10030208e-09  1.20000000e+00  3.62496007e-03  6.07444075e-05 
 1.10046727e-09  1.20000000e+00  5.60725824e-03  1.01858495e-04 
 1.10066902e-09  1.20000000e+00  8.02824260e-03  1.60793642e-04 
 1.10088082e-09  1.20000000e+00  1.05698105e-02  2.27778283e-04 
 1.10116374e-09  1.20000000e+00  1.39649277e-02  3.20080154e-04 
 1.10149671e-09  1.20000000e+00  1.79605544e-02  4.29033198e-04 
 1.10197140e-09  1.20000000e+00  2.36568378e-02  5.81406655e-04 
 1.10260263e-09  1.20000000e+00  3.12315328e-02  7.76734719e-04 
 1.10330324e-09  1.20000000e+00  3.96388622e-02  9.83670446e-04 
 1.10407384e-09  1.20000000e+00  4.88860737e-02  1.20013479e-03 
 1.10492645e-09  1.20000000e+00  5.91174077e-02  1.42715878e-03 
 1.10591050e-09  1.20000000e+00  7.09260222e-02  1.67429721e-03 
 1.10705181e-09  1.20000000e+00  8.46216853e-02  1.94276155e-03 
 1.10842796e-09  1.20000000e+00  1.01135504e-01  2.24300443e-03 
 1.11013928e-09  1.20000000e+00  1.21671394e-01  2.58570373e-03 
 1.11248124e-09  1.20000000e+00  1.49774916e-01  3.00628235e-03 
 1.11560294e-09  1.20000000e+00  1.87235311e-01  3.48814655e-03 
 1.11841278e-09  1.20000000e+00  2.20953363e-01  3.85537373e-03 
 1.12121990e-09  1.20000000e+00  2.54638760e-01  4.17222918e-03 
 1.12379836e-09  1.20000000e+00  2.85580366e-01  4.43325928e-03 
 1.12555537e-09  1.20000000e+00  3.06664391e-01  4.60622724e-03 
 1.12703259e-09  1.20000000e+00  3.24391049e-01  4.75864699e-03 
 1.12852258e-09  1.20000000e+00  3.42270934e-01  4.92760096e-03 
 1.13021245e-09  1.20000000e+00  3.62549414e-01  5.14811233e-03 
 1.13187294e-09  1.20000000e+00  3.82475247e-01  5.40025586e-03 
 1.13411242e-09  1.20000000e+00  4.09349002e-01  5.78402994e-03 
 1.13561885e-09  1.20000000e+00  4.27426219e-01  6.05385008e-03 
 1.13718186e-09  1.20000000e+00  4.46182346e-01  6.32403696e-03 
 1.13896867e-09  1.20000000e+00  4.67624083e-01  6.60679947e-03 
 1.14093180e-09  1.20000000e+00  4.91181652e-01  6.87388821e-03 
 1.14322833e-09  1.20000000e+00  5.18739939e-01  7.11980274e-03 
 1.14614580e-09  1.20000000e+00  5.53749655e-01  7.32952365e-03 
 1.14943809e-09  1.20000000e+00  5.93257033e-01  7.44403512e-03 
 1.15324004e-09  1.20000000e+00  6.38880507e-01  7.44898234e-03 
 1.15682188e-09  1.20000000e+00  6.81862560e-01  7.36355989e-03 
 1.15983469e-09  1.20000000e+00  7.18016266e-01  7.24706945e-03 
 1.16259032e-09  1.20000000e+00  7.51083883e-01  7.11890802e-03 
 1.16557733e-09  1.20000000e+00  7.86928004e-01  6.96772879e-03 
 1.16848180e-09  1.20000000e+00  8.21781605e-01  6.81610943e-03 
 1.17079850e-09  1.20000000e+00  8.49582019e-01  6.69554646e-03 
 1.17262196e-09  1.20000000e+00  8.71463498e-01  6.60231063e-03 
 1.17433327e-09  1.20000000e+00  8.91999272e-01  6.51684057e-03 
 1.17639181e-09  1.20000000e+00  9.16701719e-01  6.41741843e-03 
 1.17832506e-09  1.20000000e+00  9.39900762e-01  6.32817041e-03 
 1.17989344e-09  1.20000000e+00  9.58721283e-01  6.25918169e-03 
 1.18127062e-09  1.20000000e+00  9.75247443e-01  6.20129746e-03 
 1.18286805e-09  1.20000000e+00  9.94416604e-01  6.13730888e-03 
 1.18461637e-09  1.20000000e+00  1.01539646e+00  6.07105812e-03 
 1.18651570e-09  1.20000000e+00  1.03818843e+00  6.00338126e-03 
 1.18869209e-09  1.20000000e+00  1.06430509e+00  5.93107225e-03 
 1.19137015e-09  1.20000000e+00  1.09644177e+00  5.84936973e-03 
 1.19466347e-09  1.20000000e+00  1.13596170e+00  5.75918214e-03 
 1.19944495e-09  1.20000000e+00  1.19333939e+00  5.64655842e-03 
 1.20000000e-09  1.20000000e+00  1.20000000e+00  5.63481429e-03 
 1.20000192e-09  1.20000000e+00  1.20000000e+00  5.63476949e-03 
 1.20000577e-09  1.20000000e+00  1.20000000e+00  5.63467074e-03 
 1.20001346e-09  1.20000000e+00  1.20000000e+00  5.63441874e-03 
 1.20002884e-09  1.20000000e+00  1.20000000e+00  5.63370111e-03 
 1.20005961e-09  1.20000000e+00  1.20000000e+00  5.63144502e-03 
 1.20012114e-09  1.20000000e+00  1.20000000e+00  5.62390141e-03 
 1.20024420e-09  1.20000000e+00  1.20000000e+00  5.59845677e-03 
 1.20049032e-09  1.20000000e+00  1.20000000e+00  5.51715295e-03 
 1.20081035e-09  1.20000000e+00  1.20000000e+00  5.37328930e-03 
 1.20115281e-09  1.20000000e+00  1.20000000e+00  5.19603294e-03 
 1.20151225e-09  1.20000000e+00  1.20000000e+00  5.00136836e-03 
 1.20190149e-09  1.20000000e+00  1.20000000e+00  4.79095577e-03 
 1.20232923e-09  1.20000000e+00  1.20000000e+00  4.56604589e-03 
 1.20280381e-09  1.20000000e+00  1.20000000e+00  4.32723980e-03 
 1.20333378e-09  1.20000000e+00  1.20000000e+00  4.07490818e-03 
 1.20393398e-09  1.20000000e+00  1.20000000e+00  3.80706733e-03 
 1.20462227e-09  1.20000000e+00  1.20000000e+00  3.52197942e-03 
 1.20542718e-09  1.20000000e+00  1.20000000e+00  3.21608158e-03 
 1.20639003e-09  1.20000000e+00  1.20000000e+00  2.88535617e-03 
 1.20757680e-09  1.20000000e+00  1.20000000e+00  2.52456618e-03 
 1.20909856e-09  1.20000000e+00  1.20000000e+00  2.12749390e-03 
