 v-sweep         v(2)            i(vd)          
 6.00000000e-01 -1.00000000e-01  8.13680465e-12 
 5.80000000e-01 -1.00000000e-01  9.05354333e-12 
 5.60000000e-01 -1.00000000e-01  1.01482569e-11 
 5.40000000e-01 -1.00000000e-01  1.13813579e-11 
 5.20000000e-01 -1.00000000e-01  1.27669869e-11 
 5.00000000e-01 -1.00000000e-01  1.43201870e-11 
 4.80000000e-01 -1.00000000e-01  1.60568670e-11 
 4.60000000e-01 -1.00000000e-01  1.79937594e-11 
 4.40000000e-01 -1.00000000e-01  2.01483926e-11 
 4.20000000e-01 -1.00000000e-01  2.25391214e-11 
 4.00000000e-01 -1.00000000e-01  2.51853039e-11 
 3.80000000e-01 -1.00000000e-01  2.81077912e-11 
 3.60000000e-01 -1.00000000e-01  3.13300432e-11 
 3.40000000e-01 -1.00000000e-01  3.48804490e-11 
 3.20000000e-01 -1.00000000e-01  3.87969060e-11 
 3.00000000e-01 -1.00000000e-01  4.31355767e-11 
 2.80000000e-01 -1.00000000e-01  4.79872904e-11 
 2.60000000e-01 -1.00000000e-01  5.35078463e-11 
 2.40000000e-01 -1.00000000e-01  5.99734740e-11 
 2.20000000e-01 -1.00000000e-01  6.78816776e-11 
 2.00000000e-01 -1.00000000e-01  7.96669374e-11 
 1.80000000e-01 -1.00000000e-01  9.50070159e-11 
 1.60000000e-01 -1.00000000e-01  1.18180844e-10 
 1.40000000e-01 -1.00000000e-01  1.55249740e-10 
 1.20000000e-01 -1.00000000e-01  2.17124983e-10 
 1.00000000e-01 -1.00000000e-01  3.23396309e-10 
 8.00000000e-02 -1.00000000e-01  5.09135787e-10 
 6.00000000e-02 -1.00000000e-01  8.36939924e-10 
 4.00000000e-02 -1.00000000e-01  1.41813164e-09 
 2.00000000e-02 -1.00000000e-01  2.44983831e-09 
-1.73472348e-16 -1.00000000e-01  4.27926916e-09 
-2.00000000e-02 -1.00000000e-01  7.51389208e-09 
-4.00000000e-02 -1.00000000e-01  1.32075618e-08 
-6.00000000e-02 -1.00000000e-01  2.31692020e-08 
-8.00000000e-02 -1.00000000e-01  4.04630345e-08 
-1.00000000e-01 -1.00000000e-01  7.01966338e-08 
-1.20000000e-01 -1.00000000e-01  1.20721825e-07 
-1.40000000e-01 -1.00000000e-01  2.05398622e-07 
-1.60000000e-01 -1.00000000e-01  3.45093440e-07 
-1.80000000e-01 -1.00000000e-01  5.71616406e-07 
-2.00000000e-01 -1.00000000e-01  9.32395312e-07 
-2.20000000e-01 -1.00000000e-01  1.49689952e-06 
-2.40000000e-01 -1.00000000e-01  2.36567824e-06 
-2.60000000e-01 -1.00000000e-01  3.68320429e-06 
-2.80000000e-01 -1.00000000e-01  5.65558604e-06 
-3.00000000e-01 -1.00000000e-01  8.57296059e-06 
-3.20000000e-01 -1.00000000e-01  1.28333444e-05 
-3.40000000e-01 -1.00000000e-01  1.89597652e-05 
-3.60000000e-01 -1.00000000e-01  2.75968959e-05 
-3.80000000e-01 -1.00000000e-01  3.94705116e-05 
-4.00000000e-01 -1.00000000e-01  5.52976821e-05 
-4.20000000e-01 -1.00000000e-01  7.56514213e-05 
-4.40000000e-01 -1.00000000e-01  1.00810420e-04 
-4.60000000e-01 -1.00000000e-01  1.30653473e-04 
-4.80000000e-01 -1.00000000e-01  1.64661636e-04 
-5.00000000e-01 -1.00000000e-01  2.02038927e-04 
-5.20000000e-01 -1.00000000e-01  2.41886350e-04 
-5.40000000e-01 -1.00000000e-01  2.83345870e-04 
-5.60000000e-01 -1.00000000e-01  3.25678557e-04 
-5.80000000e-01 -1.00000000e-01  3.68287837e-04 
-6.00000000e-01 -1.00000000e-01  4.10712069e-04 
-6.20000000e-01 -1.00000000e-01  4.52604758e-04 
-6.40000000e-01 -1.00000000e-01  4.93712284e-04 
-6.60000000e-01 -1.00000000e-01  5.33853496e-04 
-6.80000000e-01 -1.00000000e-01  5.72902632e-04 
-7.00000000e-01 -1.00000000e-01  6.10775713e-04 
-7.20000000e-01 -1.00000000e-01  6.47420001e-04 
-7.40000000e-01 -1.00000000e-01  6.82805998e-04 
-7.60000000e-01 -1.00000000e-01  7.16921418e-04 
-7.80000000e-01 -1.00000000e-01  7.49766685e-04 
-8.00000000e-01 -1.00000000e-01  7.81351571e-04 
-8.20000000e-01 -1.00000000e-01  8.11692686e-04 
-8.40000000e-01 -1.00000000e-01  8.40811597e-04 
-8.60000000e-01 -1.00000000e-01  8.68733410e-04 
-8.80000000e-01 -1.00000000e-01  8.95485690e-04 
-9.00000000e-01 -1.00000000e-01  9.21097638e-04 
-9.20000000e-01 -1.00000000e-01  9.45599446e-04 
-9.40000000e-01 -1.00000000e-01  9.69021795e-04 
-9.60000000e-01 -1.00000000e-01  9.91395450e-04 
-9.80000000e-01 -1.00000000e-01  1.01275093e-03 
-1.00000000e+00 -1.00000000e-01  1.03311825e-03 
-1.02000000e+00 -1.00000000e-01  1.05252665e-03 
-1.04000000e+00 -1.00000000e-01  1.07100444e-03 
-1.06000000e+00 -1.00000000e-01  1.08857877e-03 
-1.08000000e+00 -1.00000000e-01  1.10527549e-03 
-1.10000000e+00 -1.00000000e-01  1.12111895e-03 
-1.12000000e+00 -1.00000000e-01  1.13613183e-03 
-1.14000000e+00 -1.00000000e-01  1.15033501e-03 
-1.16000000e+00 -1.00000000e-01  1.16374732e-03 
-1.18000000e+00 -1.00000000e-01  1.17638536e-03 
-1.20000000e+00 -1.00000000e-01  1.18826326e-03 
 6.00000000e-01 -4.00000000e-01  1.59638442e-11 
 5.80000000e-01 -4.00000000e-01  1.60702723e-11 
 5.60000000e-01 -4.00000000e-01  1.62056649e-11 
 5.40000000e-01 -4.00000000e-01  1.63648121e-11 
 5.20000000e-01 -4.00000000e-01  1.65511991e-11 
 5.00000000e-01 -4.00000000e-01  1.67688124e-11 
 4.80000000e-01 -4.00000000e-01  1.70222477e-11 
 4.60000000e-01 -4.00000000e-01  1.73168751e-11 
 4.40000000e-01 -4.00000000e-01  1.76591031e-11 
 4.20000000e-01 -4.00000000e-01  1.80568183e-11 
 4.00000000e-01 -4.00000000e-01  1.85201391e-11 
 3.80000000e-01 -4.00000000e-01  1.90627315e-11 
 3.60000000e-01 -4.00000000e-01  1.97041335e-11 
 3.40000000e-01 -4.00000000e-01  2.04738906e-11 
 3.20000000e-01 -4.00000000e-01  2.14189435e-11 
 3.00000000e-01 -4.00000000e-01  2.26168586e-11 
 2.80000000e-01 -4.00000000e-01  2.41995524e-11 
 2.60000000e-01 -4.00000000e-01  2.63958541e-11 
 2.40000000e-01 -4.00000000e-01  2.96078835e-11 
 2.20000000e-01 -4.00000000e-01  3.56914311e-11 
 2.00000000e-01 -4.00000000e-01  4.44824591e-11 
 1.80000000e-01 -4.00000000e-01  5.92077453e-11 
 1.60000000e-01 -4.00000000e-01  8.44498763e-11 
 1.40000000e-01 -4.00000000e-01  1.28407226e-10 
 1.20000000e-01 -4.00000000e-01  2.05741856e-10 
 1.00000000e-01 -4.00000000e-01  3.42651587e-10 
 8.00000000e-02 -4.00000000e-01  5.85876803e-10 
 6.00000000e-02 -4.00000000e-01  1.01863264e-09 
 4.00000000e-02 -4.00000000e-01  1.78864824e-09 
 2.00000000e-02 -4.00000000e-01  3.15718479e-09 
-1.73472348e-16 -4.00000000e-01  5.58398241e-09 
-2.00000000e-02 -4.00000000e-01  9.87280712e-09 
-4.00000000e-02 -4.00000000e-01  1.74171942e-08 
-6.00000000e-02 -4.00000000e-01  3.06076471e-08 
-8.00000000e-02 -4.00000000e-01  5.34905885e-08 
-1.00000000e-01 -4.00000000e-01  9.28039901e-08 
-1.20000000e-01 -4.00000000e-01  1.59549062e-07 
-1.40000000e-01 -4.00000000e-01  2.71282414e-07 
-1.60000000e-01 -4.00000000e-01  4.55322976e-07 
-1.80000000e-01 -4.00000000e-01  7.53077083e-07 
-2.00000000e-01 -4.00000000e-01  1.22574636e-06 
-2.20000000e-01 -4.00000000e-01  1.96187866e-06 
-2.40000000e-01 -4.00000000e-01  3.08758709e-06 
-2.60000000e-01 -4.00000000e-01  4.78064462e-06 
-2.80000000e-01 -4.00000000e-01  7.28961767e-06 
-3.00000000e-01 -4.00000000e-01  1.09580601e-05 
-3.20000000e-01 -4.00000000e-01  1.62509574e-05 
-3.40000000e-01 -4.00000000e-01  2.37761611e-05 
-3.60000000e-01 -4.00000000e-01  3.42890037e-05 
-3.80000000e-01 -4.00000000e-01  4.86670292e-05 
-4.00000000e-01 -4.00000000e-01  6.78476467e-05 
-4.20000000e-01 -4.00000000e-01  9.27350100e-05 
-4.40000000e-01 -4.00000000e-01  1.24097491e-04 
-4.60000000e-01 -4.00000000e-01  1.62483950e-04 
-4.80000000e-01 -4.00000000e-01  2.08180203e-04 
-5.00000000e-01 -4.00000000e-01  2.61211061e-04 
-5.20000000e-01 -4.00000000e-01  3.21378004e-04 
-5.40000000e-01 -4.00000000e-01  3.88315249e-04 
-5.60000000e-01 -4.00000000e-01  4.61548131e-04 
-5.80000000e-01 -4.00000000e-01  5.40543331e-04 
-6.00000000e-01 -4.00000000e-01  6.24746609e-04 
-6.20000000e-01 -4.00000000e-01  7.13607971e-04 
-6.40000000e-01 -4.00000000e-01  8.06596386e-04 
-6.60000000e-01 -4.00000000e-01  9.03206764e-04 
-6.80000000e-01 -4.00000000e-01  1.00296168e-03 
-7.00000000e-01 -4.00000000e-01  1.10540972e-03 
-7.20000000e-01 -4.00000000e-01  1.21012179e-03 
-7.40000000e-01 -4.00000000e-01  1.31668619e-03 
-7.60000000e-01 -4.00000000e-01  1.42470302e-03 
-7.80000000e-01 -4.00000000e-01  1.53377827e-03 
-8.00000000e-01 -4.00000000e-01  1.64351831e-03 
-8.20000000e-01 -4.00000000e-01  1.75352534e-03 
-8.40000000e-01 -4.00000000e-01  1.86339524e-03 
-8.60000000e-01 -4.00000000e-01  1.97271909e-03 
-8.80000000e-01 -4.00000000e-01  2.08108936e-03 
-9.00000000e-01 -4.00000000e-01  2.18811093e-03 
-9.20000000e-01 -4.00000000e-01  2.29341487e-03 
-9.40000000e-01 -4.00000000e-01  2.39667220e-03 
-9.60000000e-01 -4.00000000e-01  2.49760415e-03 
-9.80000000e-01 -4.00000000e-01  2.59598720e-03 
-1.00000000e+00 -4.00000000e-01  2.69165259e-03 
-1.02000000e+00 -4.00000000e-01  2.78448184e-03 
-1.04000000e+00 -4.00000000e-01  2.87439984e-03 
-1.06000000e+00 -4.00000000e-01  2.96136730e-03 
-1.08000000e+00 -4.00000000e-01  3.04537358e-03 
-1.10000000e+00 -4.00000000e-01  3.12643028e-03 
-1.12000000e+00 -4.00000000e-01  3.20456606e-03 
-1.14000000e+00 -4.00000000e-01  3.27982235e-03 
-1.16000000e+00 -4.00000000e-01  3.35225007e-03 
-1.18000000e+00 -4.00000000e-01  3.42190694e-03 
-1.20000000e+00 -4.00000000e-01  3.48885551e-03 
 6.00000000e-01 -7.00000000e-01  5.65337137e-11 
 5.80000000e-01 -7.00000000e-01  5.62265742e-11 
 5.60000000e-01 -7.00000000e-01  5.60051229e-11 
 5.40000000e-01 -7.00000000e-01  5.58260232e-11 
 5.20000000e-01 -7.00000000e-01  5.56822283e-11 
 5.00000000e-01 -7.00000000e-01  5.55679553e-11 
 4.80000000e-01 -7.00000000e-01  5.54786064e-11 
 4.60000000e-01 -7.00000000e-01  5.54108104e-11 
 4.40000000e-01 -7.00000000e-01  5.53627302e-11 
 4.20000000e-01 -7.00000000e-01  5.53355090e-11 
 4.00000000e-01 -7.00000000e-01  5.53508279e-11 
 3.80000000e-01 -7.00000000e-01  5.54605130e-11 
 3.60000000e-01 -7.00000000e-01  5.55912241e-11 
 3.40000000e-01 -7.00000000e-01  5.57898875e-11 
 3.20000000e-01 -7.00000000e-01  5.61063839e-11 
 3.00000000e-01 -7.00000000e-01  5.66260930e-11 
 2.80000000e-01 -7.00000000e-01  5.75008280e-11 
 2.60000000e-01 -7.00000000e-01  5.90017009e-11 
 2.40000000e-01 -7.00000000e-01  6.16138385e-11 
 2.20000000e-01 -7.00000000e-01  6.75400727e-11 
 2.00000000e-01 -7.00000000e-01  7.67219500e-11 
 1.80000000e-01 -7.00000000e-01  9.30678008e-11 
 1.60000000e-01 -7.00000000e-01  1.22242636e-10 
 1.40000000e-01 -7.00000000e-01  1.74393363e-10 
 1.20000000e-01 -7.00000000e-01  2.67679081e-10 
 1.00000000e-01 -7.00000000e-01  4.34558138e-10 
 8.00000000e-02 -7.00000000e-01  7.32951811e-10 
 6.00000000e-02 -7.00000000e-01  1.26599043e-09 
 4.00000000e-02 -7.00000000e-01  2.21676189e-09 
 2.00000000e-02 -7.00000000e-01  3.90905140e-09 
-1.73472348e-16 -7.00000000e-01  6.91258400e-09 
-2.00000000e-02 -7.00000000e-01  1.22232989e-08 
-4.00000000e-02 -7.00000000e-01  2.15676040e-08 
-6.00000000e-02 -7.00000000e-01  3.79061990e-08 
-8.00000000e-02 -7.00000000e-01  6.62485070e-08 
-1.00000000e-01 -7.00000000e-01  1.14930321e-07 
-1.20000000e-01 -7.00000000e-01  1.97546679e-07 
-1.40000000e-01 -7.00000000e-01  3.35755348e-07 
-1.60000000e-01 -7.00000000e-01  5.63162069e-07 
-1.80000000e-01 -7.00000000e-01  9.30477286e-07 
-2.00000000e-01 -7.00000000e-01  1.51215237e-06 
-2.20000000e-01 -7.00000000e-01  2.41485778e-06 
-2.40000000e-01 -7.00000000e-01  3.78850775e-06 
-2.60000000e-01 -7.00000000e-01  5.84091311e-06 
-2.80000000e-01 -7.00000000e-01  8.85708061e-06 
-3.00000000e-01 -7.00000000e-01  1.32229680e-05 
-3.20000000e-01 -7.00000000e-01  1.94505775e-05 
-3.40000000e-01 -7.00000000e-01  2.81968116e-05 
-3.60000000e-01 -7.00000000e-01  4.02642014e-05 
-3.80000000e-01 -7.00000000e-01  5.65708897e-05 
-4.00000000e-01 -7.00000000e-01  7.80837464e-05 
-4.20000000e-01 -7.00000000e-01  1.05722286e-04 
-4.40000000e-01 -7.00000000e-01  1.40255768e-04 
-4.60000000e-01 -7.00000000e-01  1.82221771e-04 
-4.80000000e-01 -7.00000000e-01  2.31886814e-04 
-5.00000000e-01 -7.00000000e-01  2.89253096e-04 
-5.20000000e-01 -7.00000000e-01  3.54100342e-04 
-5.40000000e-01 -7.00000000e-01  4.26044928e-04 
-5.60000000e-01 -7.00000000e-01  5.04600129e-04 
-5.80000000e-01 -7.00000000e-01  5.89227291e-04 
-6.00000000e-01 -7.00000000e-01  6.79373911e-04 
-6.20000000e-01 -7.00000000e-01  7.74498907e-04 
-6.40000000e-01 -7.00000000e-01  8.74087425e-04 
-6.60000000e-01 -7.00000000e-01  9.77658099e-04 
-6.80000000e-01 -7.00000000e-01  1.08476537e-03 
-7.00000000e-01 -7.00000000e-01  1.19499886e-03 
-7.20000000e-01 -7.00000000e-01  1.30798117e-03 
-7.40000000e-01 -7.00000000e-01  1.42336509e-03 
-7.60000000e-01 -7.00000000e-01  1.54083054e-03 
-7.80000000e-01 -7.00000000e-01  1.66008179e-03 
-8.00000000e-01 -7.00000000e-01  1.78084488e-03 
-8.20000000e-01 -7.00000000e-01  1.90286533e-03 
-8.40000000e-01 -7.00000000e-01  2.02590621e-03 
-8.60000000e-01 -7.00000000e-01  2.14974643e-03 
-8.80000000e-01 -7.00000000e-01  2.27417931e-03 
-9.00000000e-01 -7.00000000e-01  2.39901125e-03 
-9.20000000e-01 -7.00000000e-01  2.52406067e-03 
-9.40000000e-01 -7.00000000e-01  2.64915694e-03 
-9.60000000e-01 -7.00000000e-01  2.77413956e-03 
-9.80000000e-01 -7.00000000e-01  2.89885726e-03 
-1.00000000e+00 -7.00000000e-01  3.02316725e-03 
-1.02000000e+00 -7.00000000e-01  3.14693449e-03 
-1.04000000e+00 -7.00000000e-01  3.27003097e-03 
-1.06000000e+00 -7.00000000e-01  3.39233501e-03 
-1.08000000e+00 -7.00000000e-01  3.51373061e-03 
-1.10000000e+00 -7.00000000e-01  3.63410670e-03 
-1.12000000e+00 -7.00000000e-01  3.75335643e-03 
-1.14000000e+00 -7.00000000e-01  3.87137642e-03 
-1.16000000e+00 -7.00000000e-01  3.98806593e-03 
-1.18000000e+00 -7.00000000e-01  4.10332600e-03 
-1.20000000e+00 -7.00000000e-01  4.21705858e-03 
 6.00000000e-01 -1.00000000e+00  1.72108964e-10 
 5.80000000e-01 -1.00000000e+00  1.67422180e-10 
 5.60000000e-01 -1.00000000e+00  1.63841670e-10 
 5.40000000e-01 -1.00000000e+00  1.60825933e-10 
 5.20000000e-01 -1.00000000e+00  1.58289562e-10 
 5.00000000e-01 -1.00000000e+00  1.56159873e-10 
 4.80000000e-01 -1.00000000e+00  1.54375186e-10 
 4.60000000e-01 -1.00000000e+00  1.52883455e-10 
 4.40000000e-01 -1.00000000e+00  1.51641255e-10 
 4.20000000e-01 -1.00000000e+00  1.50613221e-10 
 4.00000000e-01 -1.00000000e+00  1.49772115e-10 
 3.80000000e-01 -1.00000000e+00  1.49099865e-10 
 3.60000000e-01 -1.00000000e+00  1.48590234e-10 
 3.40000000e-01 -1.00000000e+00  1.48254279e-10 
 3.20000000e-01 -1.00000000e+00  1.48130754e-10 
 3.00000000e-01 -1.00000000e+00  1.48305280e-10 
 2.80000000e-01 -1.00000000e+00  1.48945219e-10 
 2.60000000e-01 -1.00000000e+00  1.50362632e-10 
 2.40000000e-01 -1.00000000e+00  1.53127637e-10 
 2.20000000e-01 -1.00000000e+00  1.59872538e-10 
 2.00000000e-01 -1.00000000e+00  1.70511981e-10 
 1.80000000e-01 -1.00000000e+00  1.89731757e-10 
 1.60000000e-01 -1.00000000e+00  2.24321077e-10 
 1.40000000e-01 -1.00000000e+00  2.86448705e-10 
 1.20000000e-01 -1.00000000e+00  3.97903849e-10 
 1.00000000e-01 -1.00000000e+00  5.97665134e-10 
 8.00000000e-02 -1.00000000e+00  9.55215331e-10 
 6.00000000e-02 -1.00000000e+00  1.59429420e-09 
 4.00000000e-02 -1.00000000e+00  2.73460702e-09 
 2.00000000e-02 -1.00000000e+00  4.76468457e-09 
-1.73472348e-16 -1.00000000e+00  8.36813458e-09 
-2.00000000e-02 -1.00000000e+00  1.47398583e-08 
-4.00000000e-02 -1.00000000e+00  2.59508453e-08 
-6.00000000e-02 -1.00000000e+00  4.55519314e-08 
-8.00000000e-02 -1.00000000e+00  7.95489467e-08 
-1.00000000e-01 -1.00000000e+00  1.37930332e-07 
-1.20000000e-01 -1.00000000e+00  2.36972636e-07 
-1.40000000e-01 -1.00000000e+00  4.02570650e-07 
-1.60000000e-01 -1.00000000e+00  6.74819452e-07 
-1.80000000e-01 -1.00000000e+00  1.11402180e-06 
-2.00000000e-01 -1.00000000e+00  1.80826666e-06 
-2.20000000e-01 -1.00000000e+00  2.88283458e-06 
-2.40000000e-01 -1.00000000e+00  4.51200121e-06 
-2.60000000e-01 -1.00000000e+00  6.93417813e-06 
-2.80000000e-01 -1.00000000e+00  1.04712441e-05 
-3.00000000e-01 -1.00000000e+00  1.55516399e-05 
-3.20000000e-01 -1.00000000e+00  2.27337855e-05 
-3.40000000e-01 -1.00000000e+00  3.27219291e-05 
-3.60000000e-01 -1.00000000e+00  4.63625057e-05 
-3.80000000e-01 -1.00000000e+00  6.46089288e-05 
-4.00000000e-01 -1.00000000e+00  8.84498932e-05 
-4.20000000e-01 -1.00000000e+00  1.18810325e-04 
-4.40000000e-01 -1.00000000e+00  1.56448380e-04 
-4.60000000e-01 -1.00000000e+00  2.01876792e-04 
-4.80000000e-01 -1.00000000e+00  2.55328129e-04 
-5.00000000e-01 -1.00000000e+00  3.16766620e-04 
-5.20000000e-01 -1.00000000e+00  3.85934335e-04 
-5.40000000e-01 -1.00000000e+00  4.62413325e-04 
-5.60000000e-01 -1.00000000e+00  5.45687487e-04 
-5.80000000e-01 -1.00000000e+00  6.35194272e-04 
-6.00000000e-01 -1.00000000e+00  7.30362592e-04 
-6.20000000e-01 -1.00000000e+00  8.30637523e-04 
-6.40000000e-01 -1.00000000e+00  9.35494414e-04 
-6.60000000e-01 -1.00000000e+00  1.04444545e-03 
-6.80000000e-01 -1.00000000e+00  1.15704133e-03 
-7.00000000e-01 -1.00000000e+00  1.27287014e-03 
-7.20000000e-01 -1.00000000e+00  1.39155472e-03 
-7.40000000e-01 -1.00000000e+00  1.51274950e-03 
-7.60000000e-01 -1.00000000e+00  1.63613732e-03 
-7.80000000e-01 -1.00000000e+00  1.76142633e-03 
-8.00000000e-01 -1.00000000e+00  1.88834737e-03 
-8.20000000e-01 -1.00000000e+00  2.01665159e-03 
-8.40000000e-01 -1.00000000e+00  2.14610843e-03 
-8.60000000e-01 -1.00000000e+00  2.27650395e-03 
-8.80000000e-01 -1.00000000e+00  2.40763930e-03 
-9.00000000e-01 -1.00000000e+00  2.53932952e-03 
-9.20000000e-01 -1.00000000e+00  2.67140240e-03 
-9.40000000e-01 -1.00000000e+00  2.80369756e-03 
-9.60000000e-01 -1.00000000e+00  2.93606558e-03 
-9.80000000e-01 -1.00000000e+00  3.06836726e-03 
-1.00000000e+00 -1.00000000e+00  3.20047291e-03 
-1.02000000e+00 -1.00000000e+00  3.33226171e-03 
-1.04000000e+00 -1.00000000e+00  3.46362117e-03 
-1.06000000e+00 -1.00000000e+00  3.59444655e-03 
-1.08000000e+00 -1.00000000e+00  3.72464036e-03 
-1.10000000e+00 -1.00000000e+00  3.85411192e-03 
-1.12000000e+00 -1.00000000e+00  3.98277688e-03 
-1.14000000e+00 -1.00000000e+00  4.11055682e-03 
-1.16000000e+00 -1.00000000e+00  4.23737883e-03 
-1.18000000e+00 -1.00000000e+00  4.36317519e-03 
-1.20000000e+00 -1.00000000e+00  4.48788298e-03 
