 v-sweep         v(1)            i(vd)          
 0.00000000e+00  0.00000000e+00  0.00000000e+00 
 2.00000000e-02  0.00000000e+00 -8.77787177e-14 
 4.00000000e-02  0.00000000e+00 -1.03377835e-13 
 6.00000000e-02  0.00000000e+00 -1.21862885e-13 
 8.00000000e-02  0.00000000e+00 -1.41859937e-13 
 1.00000000e-01  0.00000000e+00 -1.62136889e-13 
 1.20000000e-01  0.00000000e+00 -1.82383207e-13 
 1.40000000e-01  0.00000000e+00 -2.02562605e-13 
 1.60000000e-01  0.00000000e+00 -2.22689468e-13 
 1.80000000e-01  0.00000000e+00 -2.42779980e-13 
 2.00000000e-01  0.00000000e+00 -2.62845957e-13 
 2.20000000e-01  0.00000000e+00 -2.82895366e-13 
 2.40000000e-01  0.00000000e+00 -3.02933125e-13 
 2.60000000e-01  0.00000000e+00 -3.22962767e-13 
 2.80000000e-01  0.00000000e+00 -3.42985972e-13 
 3.00000000e-01  0.00000000e+00 -3.63004996e-13 
 3.20000000e-01  0.00000000e+00 -3.83020499e-13 
 3.40000000e-01  0.00000000e+00 -4.03033396e-13 
 3.60000000e-01  0.00000000e+00 -4.23044076e-13 
 3.80000000e-01  0.00000000e+00 -4.43053020e-13 
 4.00000000e-01  0.00000000e+00 -4.63060772e-13 
 4.20000000e-01  0.00000000e+00 -4.83067690e-13 
 4.40000000e-01  0.00000000e+00 -5.03073477e-13 
 4.60000000e-01  0.00000000e+00 -5.23078537e-13 
 4.80000000e-01  0.00000000e+00 -5.43083057e-13 
 5.00000000e-01  0.00000000e+00 -5.63087009e-13 
 5.20000000e-01  0.00000000e+00 -5.83090372e-13 
 5.40000000e-01  0.00000000e+00 -6.03093581e-13 
 5.60000000e-01  0.00000000e+00 -6.23096171e-13 
 5.80000000e-01  0.00000000e+00 -6.43098809e-13 
 6.00000000e-01  0.00000000e+00 -6.63101036e-13 
 6.20000000e-01  0.00000000e+00 -6.83103297e-13 
 6.40000000e-01  0.00000000e+00 -7.03104908e-13 
 6.60000000e-01  0.00000000e+00 -7.23106543e-13 
 6.80000000e-01  0.00000000e+00 -7.43108199e-13 
 7.00000000e-01  0.00000000e+00 -7.63109646e-13 
 7.20000000e-01  0.00000000e+00 -7.83110882e-13 
 7.40000000e-01  0.00000000e+00 -8.03112132e-13 
 7.60000000e-01  0.00000000e+00 -8.23113166e-13 
 7.80000000e-01  0.00000000e+00 -8.43114211e-13 
 8.00000000e-01  0.00000000e+00 -8.63115264e-13 
 8.20000000e-01  0.00000000e+00 -8.83116099e-13 
 8.40000000e-01  0.00000000e+00 -9.03116940e-13 
 8.60000000e-01  0.00000000e+00 -9.23117561e-13 
 8.80000000e-01  0.00000000e+00 -9.43118640e-13 
 9.00000000e-01  0.00000000e+00 -9.63119271e-13 
 9.20000000e-01  0.00000000e+00 -9.83119679e-13 
 9.40000000e-01  0.00000000e+00 -1.00312032e-12 
 9.60000000e-01  0.00000000e+00 -1.02312073e-12 
 9.80000000e-01  0.00000000e+00 -1.04312161e-12 
 1.00000000e+00  0.00000000e+00 -1.06312203e-12 
 1.02000000e+00  0.00000000e+00 -1.08312245e-12 
 1.04000000e+00  0.00000000e+00 -1.10312288e-12 
 1.06000000e+00  0.00000000e+00 -1.12312331e-12 
 1.08000000e+00  0.00000000e+00 -1.14312351e-12 
 1.10000000e+00  0.00000000e+00 -1.16312394e-12 
 1.12000000e+00  0.00000000e+00 -1.18312415e-12 
 1.14000000e+00  0.00000000e+00 -1.20312481e-12 
 1.16000000e+00  0.00000000e+00 -1.22312502e-12 
 1.18000000e+00  0.00000000e+00 -1.24312523e-12 
 1.20000000e+00  0.00000000e+00 -1.26312544e-12 
 0.00000000e+00  2.00000000e-01  0.00000000e+00 
 2.00000000e-02  2.00000000e-01 -2.70260497e-10 
 4.00000000e-02  2.00000000e-01 -3.58181413e-10 
 6.00000000e-02  2.00000000e-01 -3.88552624e-10 
 8.00000000e-02  2.00000000e-01 -4.00604729e-10 
 1.00000000e-01  2.00000000e-01 -4.06160524e-10 
 1.20000000e-01  2.00000000e-01 -4.10042207e-10 
 1.40000000e-01  2.00000000e-01 -4.11241357e-10 
 1.60000000e-01  2.00000000e-01 -4.12094457e-10 
 1.80000000e-01  2.00000000e-01 -4.12709429e-10 
 2.00000000e-01  2.00000000e-01 -4.13163801e-10 
 2.20000000e-01  2.00000000e-01 -4.13508566e-10 
 2.40000000e-01  2.00000000e-01 -4.13776909e-10 
 2.60000000e-01  2.00000000e-01 -4.13990708e-10 
 2.80000000e-01  2.00000000e-01 -4.14164693e-10 
 3.00000000e-01  2.00000000e-01 -4.14309005e-10 
 3.20000000e-01  2.00000000e-01 -4.14430781e-10 
 3.40000000e-01  2.00000000e-01 -4.14535149e-10 
 3.60000000e-01  2.00000000e-01 -4.14625865e-10 
 3.80000000e-01  2.00000000e-01 -4.14705727e-10 
 4.00000000e-01  2.00000000e-01 -4.14776853e-10 
 4.20000000e-01  2.00000000e-01 -4.14840868e-10 
 4.40000000e-01  2.00000000e-01 -4.14899037e-10 
 4.60000000e-01  2.00000000e-01 -4.14952355e-10 
 4.80000000e-01  2.00000000e-01 -4.15001616e-10 
 5.00000000e-01  2.00000000e-01 -4.15047454e-10 
 5.20000000e-01  2.00000000e-01 -4.15090388e-10 
 5.40000000e-01  2.00000000e-01 -4.15130838e-10 
 5.60000000e-01  2.00000000e-01 -4.15169153e-10 
 5.80000000e-01  2.00000000e-01 -4.15205622e-10 
 6.00000000e-01  2.00000000e-01 -4.15240487e-10 
 6.20000000e-01  2.00000000e-01 -4.15273951e-10 
 6.40000000e-01  2.00000000e-01 -4.15306186e-10 
 6.60000000e-01  2.00000000e-01 -4.15337338e-10 
 6.80000000e-01  2.00000000e-01 -4.15367533e-10 
 7.00000000e-01  2.00000000e-01 -4.15396877e-10 
 7.20000000e-01  2.00000000e-01 -4.15425463e-10 
 7.40000000e-01  2.00000000e-01 -4.15453373e-10 
 7.60000000e-01  2.00000000e-01 -4.15480676e-10 
 7.80000000e-01  2.00000000e-01 -4.15507432e-10 
 8.00000000e-01  2.00000000e-01 -4.15533697e-10 
 8.20000000e-01  2.00000000e-01 -4.15559516e-10 
 8.40000000e-01  2.00000000e-01 -4.15584932e-10 
 8.60000000e-01  2.00000000e-01 -4.15609981e-10 
 8.80000000e-01  2.00000000e-01 -4.15634696e-10 
 9.00000000e-01  2.00000000e-01 -4.15659106e-10 
 9.20000000e-01  2.00000000e-01 -4.15683237e-10 
 9.40000000e-01  2.00000000e-01 -4.15707113e-10 
 9.60000000e-01  2.00000000e-01 -4.15730754e-10 
 9.80000000e-01  2.00000000e-01 -4.15754179e-10 
 1.00000000e+00  2.00000000e-01 -4.15777405e-10 
 1.02000000e+00  2.00000000e-01 -4.15800448e-10 
 1.04000000e+00  2.00000000e-01 -4.15823321e-10 
 1.06000000e+00  2.00000000e-01 -4.15846036e-10 
 1.08000000e+00  2.00000000e-01 -4.15868606e-10 
 1.10000000e+00  2.00000000e-01 -4.15891040e-10 
 1.12000000e+00  2.00000000e-01 -4.15913348e-10 
 1.14000000e+00  2.00000000e-01 -4.15935539e-10 
 1.16000000e+00  2.00000000e-01 -4.15957621e-10 
 1.18000000e+00  2.00000000e-01 -4.15979600e-10 
 1.20000000e+00  2.00000000e-01 -4.16001484e-10 
 0.00000000e+00  4.00000000e-01  0.00000000e+00 
 2.00000000e-02  4.00000000e-01 -1.91678238e-06 
 4.00000000e-02  4.00000000e-01 -2.57013765e-06 
 6.00000000e-02  4.00000000e-01 -2.80018359e-06 
 8.00000000e-02  4.00000000e-01 -2.89270094e-06 
 1.00000000e-01  4.00000000e-01 -2.93610571e-06 
 1.20000000e-01  4.00000000e-01 -2.95947944e-06 
 1.40000000e-01  4.00000000e-01 -2.97356497e-06 
 1.60000000e-01  4.00000000e-01 -2.98476821e-06 
 1.80000000e-01  4.00000000e-01 -2.99052190e-06 
 2.00000000e-01  4.00000000e-01 -2.99499051e-06 
 2.20000000e-01  4.00000000e-01 -2.99856416e-06 
 2.40000000e-01  4.00000000e-01 -3.00149872e-06 
 2.60000000e-01  4.00000000e-01 -3.00396460e-06 
 2.80000000e-01  4.00000000e-01 -3.00607784e-06 
 3.00000000e-01  4.00000000e-01 -3.00791947e-06 
 3.20000000e-01  4.00000000e-01 -3.00954740e-06 
 3.40000000e-01  4.00000000e-01 -3.01100399e-06 
 3.60000000e-01  4.00000000e-01 -3.01232087e-06 
 3.80000000e-01  4.00000000e-01 -3.01352206e-06 
 4.00000000e-01  4.00000000e-01 -3.01462619e-06 
 4.20000000e-01  4.00000000e-01 -3.01564789e-06 
 4.40000000e-01  4.00000000e-01 -3.01659881e-06 
 4.60000000e-01  4.00000000e-01 -3.01748837e-06 
 4.80000000e-01  4.00000000e-01 -3.01832427e-06 
 5.00000000e-01  4.00000000e-01 -3.01911287e-06 
 5.20000000e-01  4.00000000e-01 -3.01985948e-06 
 5.40000000e-01  4.00000000e-01 -3.02056856e-06 
 5.60000000e-01  4.00000000e-01 -3.02124391e-06 
 5.80000000e-01  4.00000000e-01 -3.02188876e-06 
 6.00000000e-01  4.00000000e-01 -3.02250593e-06 
 6.20000000e-01  4.00000000e-01 -3.02309782e-06 
 6.40000000e-01  4.00000000e-01 -3.02366656e-06 
 6.60000000e-01  4.00000000e-01 -3.02421401e-06 
 6.80000000e-01  4.00000000e-01 -3.02474180e-06 
 7.00000000e-01  4.00000000e-01 -3.02525139e-06 
 7.20000000e-01  4.00000000e-01 -3.02574407e-06 
 7.40000000e-01  4.00000000e-01 -3.02622101e-06 
 7.60000000e-01  4.00000000e-01 -3.02668323e-06 
 7.80000000e-01  4.00000000e-01 -3.02713169e-06 
 8.00000000e-01  4.00000000e-01 -3.02756722e-06 
 8.20000000e-01  4.00000000e-01 -3.02799060e-06 
 8.40000000e-01  4.00000000e-01 -3.02840252e-06 
 8.60000000e-01  4.00000000e-01 -3.02880364e-06 
 8.80000000e-01  4.00000000e-01 -3.02919454e-06 
 9.00000000e-01  4.00000000e-01 -3.02957574e-06 
 9.20000000e-01  4.00000000e-01 -3.02994776e-06 
 9.40000000e-01  4.00000000e-01 -3.03031105e-06 
 9.60000000e-01  4.00000000e-01 -3.03066603e-06 
 9.80000000e-01  4.00000000e-01 -3.03101310e-06 
 1.00000000e+00  4.00000000e-01 -3.03135261e-06 
 1.02000000e+00  4.00000000e-01 -3.03168491e-06 
 1.04000000e+00  4.00000000e-01 -3.03201031e-06 
 1.06000000e+00  4.00000000e-01 -3.03232911e-06 
 1.08000000e+00  4.00000000e-01 -3.03264159e-06 
 1.10000000e+00  4.00000000e-01 -3.03294799e-06 
 1.12000000e+00  4.00000000e-01 -3.03324857e-06 
 1.14000000e+00  4.00000000e-01 -3.03354356e-06 
 1.16000000e+00  4.00000000e-01 -3.03383315e-06 
 1.18000000e+00  4.00000000e-01 -3.03411757e-06 
 1.20000000e+00  4.00000000e-01 -3.03439699e-06 
 0.00000000e+00  6.00000000e-01  0.00000000e+00 
 2.00000000e-02  6.00000000e-01 -1.22845321e-04 
 4.00000000e-02  6.00000000e-01 -2.19763404e-04 
 6.00000000e-02  6.00000000e-01 -2.91260502e-04 
 8.00000000e-02  6.00000000e-01 -3.41859896e-04 
 1.00000000e-01  6.00000000e-01 -3.77093713e-04 
 1.20000000e-01  6.00000000e-01 -4.01756808e-04 
 1.40000000e-01  6.00000000e-01 -4.19387877e-04 
 1.60000000e-01  6.00000000e-01 -4.32385269e-04 
 1.80000000e-01  6.00000000e-01 -4.42306705e-04 
 2.00000000e-01  6.00000000e-01 -4.50148226e-04 
 2.20000000e-01  6.00000000e-01 -4.56547871e-04 
 2.40000000e-01  6.00000000e-01 -4.62378398e-04 
 2.60000000e-01  6.00000000e-01 -4.66877362e-04 
 2.80000000e-01  6.00000000e-01 -4.70845181e-04 
 3.00000000e-01  6.00000000e-01 -4.74397004e-04 
 3.20000000e-01  6.00000000e-01 -4.77615800e-04 
 3.40000000e-01  6.00000000e-01 -4.80562705e-04 
 3.60000000e-01  6.00000000e-01 -4.83283720e-04 
 3.80000000e-01  6.00000000e-01 -4.85814137e-04 
 4.00000000e-01  6.00000000e-01 -4.88181520e-04 
 4.20000000e-01  6.00000000e-01 -4.90407763e-04 
 4.40000000e-01  6.00000000e-01 -4.92510514e-04 
 4.60000000e-01  6.00000000e-01 -4.94504200e-04 
 4.80000000e-01  6.00000000e-01 -4.96400763e-04 
 5.00000000e-01  6.00000000e-01 -4.98210203e-04 
 5.20000000e-01  6.00000000e-01 -4.99940980e-04 
 5.40000000e-01  6.00000000e-01 -5.01600317e-04 
 5.60000000e-01  6.00000000e-01 -5.03194439e-04 
 5.80000000e-01  6.00000000e-01 -5.04728747e-04 
 6.00000000e-01  6.00000000e-01 -5.06207965e-04 
 6.20000000e-01  6.00000000e-01 -5.07636248e-04 
 6.40000000e-01  6.00000000e-01 -5.09017275e-04 
 6.60000000e-01  6.00000000e-01 -5.10354321e-04 
 6.80000000e-01  6.00000000e-01 -5.11650315e-04 
 7.00000000e-01  6.00000000e-01 -5.12907886e-04 
 7.20000000e-01  6.00000000e-01 -5.14129411e-04 
 7.40000000e-01  6.00000000e-01 -5.15317038e-04 
 7.60000000e-01  6.00000000e-01 -5.16472723e-04 
 7.80000000e-01  6.00000000e-01 -5.17598251e-04 
 8.00000000e-01  6.00000000e-01 -5.18695251e-04 
 8.20000000e-01  6.00000000e-01 -5.19765222e-04 
 8.40000000e-01  6.00000000e-01 -5.20809542e-04 
 8.60000000e-01  6.00000000e-01 -5.21829481e-04 
 8.80000000e-01  6.00000000e-01 -5.22826216e-04 
 9.00000000e-01  6.00000000e-01 -5.23800834e-04 
 9.20000000e-01  6.00000000e-01 -5.24754349e-04 
 9.40000000e-01  6.00000000e-01 -5.25687701e-04 
 9.60000000e-01  6.00000000e-01 -5.26601767e-04 
 9.80000000e-01  6.00000000e-01 -5.27497369e-04 
 1.00000000e+00  6.00000000e-01 -5.28375272e-04 
 1.02000000e+00  6.00000000e-01 -5.29236196e-04 
 1.04000000e+00  6.00000000e-01 -5.30080815e-04 
 1.06000000e+00  6.00000000e-01 -5.30909762e-04 
 1.08000000e+00  6.00000000e-01 -5.31723635e-04 
 1.10000000e+00  6.00000000e-01 -5.32522996e-04 
 1.12000000e+00  6.00000000e-01 -5.33308375e-04 
 1.14000000e+00  6.00000000e-01 -5.34080274e-04 
 1.16000000e+00  6.00000000e-01 -5.34839165e-04 
 1.18000000e+00  6.00000000e-01 -5.35585500e-04 
 1.20000000e+00  6.00000000e-01 -5.36319702e-04 
 0.00000000e+00  8.00000000e-01  0.00000000e+00 
 2.00000000e-02  8.00000000e-01 -2.78964560e-04 
 4.00000000e-02  8.00000000e-01 -5.34279548e-04 
 6.00000000e-02  8.00000000e-01 -7.61326345e-04 
 8.00000000e-02  8.00000000e-01 -9.58553029e-04 
 1.00000000e-01  8.00000000e-01 -1.12681227e-03 
 1.20000000e-01  8.00000000e-01 -1.26849517e-03 
 1.40000000e-01  8.00000000e-01 -1.38676412e-03 
 1.60000000e-01  8.00000000e-01 -1.48500105e-03 
 1.80000000e-01  8.00000000e-01 -1.56646241e-03 
 2.00000000e-01  8.00000000e-01 -1.63409091e-03 
 2.20000000e-01  8.00000000e-01 -1.69043437e-03 
 2.40000000e-01  8.00000000e-01 -1.73763287e-03 
 2.60000000e-01  8.00000000e-01 -1.77744550e-03 
 2.80000000e-01  8.00000000e-01 -1.81129657e-03 
 3.00000000e-01  8.00000000e-01 -1.84032779e-03 
 3.20000000e-01  8.00000000e-01 -1.86726930e-03 
 3.40000000e-01  8.00000000e-01 -1.88886953e-03 
 3.60000000e-01  8.00000000e-01 -1.90792540e-03 
 3.80000000e-01  8.00000000e-01 -1.92487924e-03 
 4.00000000e-01  8.00000000e-01 -1.94008406e-03 
 4.20000000e-01  8.00000000e-01 -1.95382290e-03 
 4.40000000e-01  8.00000000e-01 -1.96632388e-03 
 4.60000000e-01  8.00000000e-01 -1.97777194e-03 
 4.80000000e-01  8.00000000e-01 -1.98831790e-03 
 5.00000000e-01  8.00000000e-01 -1.99808553e-03 
 5.20000000e-01  8.00000000e-01 -2.00717704e-03 
 5.40000000e-01  8.00000000e-01 -2.01567737e-03 
 5.60000000e-01  8.00000000e-01 -2.02365755e-03 
 5.80000000e-01  8.00000000e-01 -2.03117734e-03 
 6.00000000e-01  8.00000000e-01 -2.03828734e-03 
 6.20000000e-01  8.00000000e-01 -2.04503062e-03 
 6.40000000e-01  8.00000000e-01 -2.05144407e-03 
 6.60000000e-01  8.00000000e-01 -2.05755947e-03 
 6.80000000e-01  8.00000000e-01 -2.06340430e-03 
 7.00000000e-01  8.00000000e-01 -2.06900251e-03 
 7.20000000e-01  8.00000000e-01 -2.07437502e-03 
 7.40000000e-01  8.00000000e-01 -2.07954022e-03 
 7.60000000e-01  8.00000000e-01 -2.08451433e-03 
 7.80000000e-01  8.00000000e-01 -2.08931175e-03 
 8.00000000e-01  8.00000000e-01 -2.09394528e-03 
 8.20000000e-01  8.00000000e-01 -2.09842637e-03 
 8.40000000e-01  8.00000000e-01 -2.10276527e-03 
 8.60000000e-01  8.00000000e-01 -2.10697124e-03 
 8.80000000e-01  8.00000000e-01 -2.11105261e-03 
 9.00000000e-01  8.00000000e-01 -2.11501696e-03 
 9.20000000e-01  8.00000000e-01 -2.11887116e-03 
 9.40000000e-01  8.00000000e-01 -2.12262149e-03 
 9.60000000e-01  8.00000000e-01 -2.12627367e-03 
 9.80000000e-01  8.00000000e-01 -2.12983296e-03 
 1.00000000e+00  8.00000000e-01 -2.13330419e-03 
 1.02000000e+00  8.00000000e-01 -2.13669181e-03 
 1.04000000e+00  8.00000000e-01 -2.13999994e-03 
 1.06000000e+00  8.00000000e-01 -2.14323236e-03 
 1.08000000e+00  8.00000000e-01 -2.14639262e-03 
 1.10000000e+00  8.00000000e-01 -2.14948398e-03 
 1.12000000e+00  8.00000000e-01 -2.15250951e-03 
 1.14000000e+00  8.00000000e-01 -2.15547203e-03 
 1.16000000e+00  8.00000000e-01 -2.15837422e-03 
 1.18000000e+00  8.00000000e-01 -2.16121855e-03 
 1.20000000e+00  8.00000000e-01 -2.16400736e-03 
 0.00000000e+00  1.00000000e+00  0.00000000e+00 
 2.00000000e-02  1.00000000e+00 -3.95969383e-04 
 4.00000000e-02  1.00000000e+00 -7.73133615e-04 
 6.00000000e-02  1.00000000e+00 -1.12628534e-03 
 8.00000000e-02  1.00000000e+00 -1.45202518e-03 
 1.00000000e-01  1.00000000e+00 -1.74866937e-03 
 1.20000000e-01  1.00000000e+00 -2.01596558e-03 
 1.40000000e-01  1.00000000e+00 -2.25473422e-03 
 1.60000000e-01  1.00000000e+00 -2.46652683e-03 
 1.80000000e-01  1.00000000e+00 -2.65334577e-03 
 2.00000000e-01  1.00000000e+00 -2.81743203e-03 
 2.20000000e-01  1.00000000e+00 -2.96111016e-03 
 2.40000000e-01  1.00000000e+00 -3.08667676e-03 
 2.60000000e-01  1.00000000e+00 -3.19632272e-03 
 2.80000000e-01  1.00000000e+00 -3.29208215e-03 
 3.00000000e-01  1.00000000e+00 -3.37580317e-03 
 3.20000000e-01  1.00000000e+00 -3.44913591e-03 
 3.40000000e-01  1.00000000e+00 -3.51353321e-03 
 3.60000000e-01  1.00000000e+00 -3.57026009e-03 
 3.80000000e-01  1.00000000e+00 -3.62352937e-03 
 4.00000000e-01  1.00000000e+00 -3.66759240e-03 
 4.20000000e-01  1.00000000e+00 -3.70687898e-03 
 4.40000000e-01  1.00000000e+00 -3.74206083e-03 
 4.60000000e-01  1.00000000e+00 -3.77370778e-03 
 4.80000000e-01  1.00000000e+00 -3.80230292e-03 
 5.00000000e-01  1.00000000e+00 -3.82825592e-03 
 5.20000000e-01  1.00000000e+00 -3.85191437e-03 
 5.40000000e-01  1.00000000e+00 -3.87357367e-03 
 5.60000000e-01  1.00000000e+00 -3.89348524e-03 
 5.80000000e-01  1.00000000e+00 -3.91186353e-03 
 6.00000000e-01  1.00000000e+00 -3.92889189e-03 
 6.20000000e-01  1.00000000e+00 -3.94472748e-03 
 6.40000000e-01  1.00000000e+00 -3.95950536e-03 
 6.60000000e-01  1.00000000e+00 -3.97334194e-03 
 6.80000000e-01  1.00000000e+00 -3.98633787e-03 
 7.00000000e-01  1.00000000e+00 -3.99858038e-03 
 7.20000000e-01  1.00000000e+00 -4.01014536e-03 
 7.40000000e-01  1.00000000e+00 -4.02109897e-03 
 7.60000000e-01  1.00000000e+00 -4.03149913e-03 
 7.80000000e-01  1.00000000e+00 -4.04139665e-03 
 8.00000000e-01  1.00000000e+00 -4.05083627e-03 
 8.20000000e-01  1.00000000e+00 -4.05985748e-03 
 8.40000000e-01  1.00000000e+00 -4.06849526e-03 
 8.60000000e-01  1.00000000e+00 -4.07678066e-03 
 8.80000000e-01  1.00000000e+00 -4.08474134e-03 
 9.00000000e-01  1.00000000e+00 -4.09240203e-03 
 9.20000000e-01  1.00000000e+00 -4.09978483e-03 
 9.40000000e-01  1.00000000e+00 -4.10690963e-03 
 9.60000000e-01  1.00000000e+00 -4.11379432e-03 
 9.80000000e-01  1.00000000e+00 -4.12045505e-03 
 1.00000000e+00  1.00000000e+00 -4.12690644e-03 
 1.02000000e+00  1.00000000e+00 -4.13316176e-03 
 1.04000000e+00  1.00000000e+00 -4.13923306e-03 
 1.06000000e+00  1.00000000e+00 -4.14513134e-03 
 1.08000000e+00  1.00000000e+00 -4.15086665e-03 
 1.10000000e+00  1.00000000e+00 -4.15644817e-03 
 1.12000000e+00  1.00000000e+00 -4.16188435e-03 
 1.14000000e+00  1.00000000e+00 -4.16718295e-03 
 1.16000000e+00  1.00000000e+00 -4.17235111e-03 
 1.18000000e+00  1.00000000e+00 -4.17739543e-03 
 1.20000000e+00  1.00000000e+00 -4.18232202e-03 
 0.00000000e+00  1.20000000e+00  0.00000000e+00 
 2.00000000e-02  1.20000000e+00 -4.81254362e-04 
 4.00000000e-02  1.20000000e+00 -9.47694613e-04 
 6.00000000e-02  1.20000000e+00 -1.39452783e-03 
 8.00000000e-02  1.20000000e+00 -1.81807374e-03 
 1.00000000e-01  1.20000000e+00 -2.21579933e-03 
 1.20000000e-01  1.20000000e+00 -2.58623667e-03 
 1.40000000e-01  1.20000000e+00 -2.92882643e-03 
 1.60000000e-01  1.20000000e+00 -3.24373320e-03 
 1.80000000e-01  1.20000000e+00 -3.53166866e-03 
 2.00000000e-01  1.20000000e+00 -3.79374097e-03 
 2.20000000e-01  1.20000000e+00 -4.03133468e-03 
 2.40000000e-01  1.20000000e+00 -4.24601650e-03 
 2.60000000e-01  1.20000000e+00 -4.43946057e-03 
 2.80000000e-01  1.20000000e+00 -4.61338777e-03 
 3.00000000e-01  1.20000000e+00 -4.76951615e-03 
 3.20000000e-01  1.20000000e+00 -4.90952106e-03 
 3.40000000e-01  1.20000000e+00 -5.03500455e-03 
 3.60000000e-01  1.20000000e+00 -5.14747342e-03 
 3.80000000e-01  1.20000000e+00 -5.24832513e-03 
 4.00000000e-01  1.20000000e+00 -5.34380510e-03 
 4.20000000e-01  1.20000000e+00 -5.42458509e-03 
 4.40000000e-01  1.20000000e+00 -5.49729494e-03 
 4.60000000e-01  1.20000000e+00 -5.56286719e-03 
 4.80000000e-01  1.20000000e+00 -5.62213006e-03 
 5.00000000e-01  1.20000000e+00 -5.67581613e-03 
 5.20000000e-01  1.20000000e+00 -5.72457133e-03 
 5.40000000e-01  1.20000000e+00 -5.76896391e-03 
 5.60000000e-01  1.20000000e+00 -5.80949296e-03 
 5.80000000e-01  1.20000000e+00 -5.84659635e-03 
 6.00000000e-01  1.20000000e+00 -5.88065805e-03 
 6.20000000e-01  1.20000000e+00 -5.91201474e-03 
 6.40000000e-01  1.20000000e+00 -5.94096165e-03 
 6.60000000e-01  1.20000000e+00 -5.96775782e-03 
 6.80000000e-01  1.20000000e+00 -5.99263072e-03 
 7.00000000e-01  1.20000000e+00 -6.01578030e-03 
 7.20000000e-01  1.20000000e+00 -6.03738248e-03 
 7.40000000e-01  1.20000000e+00 -6.05759229e-03 
 7.60000000e-01  1.20000000e+00 -6.07654651e-03 
 7.80000000e-01  1.20000000e+00 -6.09436602e-03 
 8.00000000e-01  1.20000000e+00 -6.11115781e-03 
