 v-sweep         v(2)            i(vd)          
 6.00000000e-01 -1.00000000e-01  1.00002800e-13 
 5.80000000e-01 -1.00000000e-01  1.00004236e-13 
 5.60000000e-01 -1.00000000e-01  1.00007135e-13 
 5.40000000e-01 -1.00000000e-01  1.00012096e-13 
 5.20000000e-01 -1.00000000e-01  1.00020630e-13 
 5.00000000e-01 -1.00000000e-01  1.00035384e-13 
 4.80000000e-01 -1.00000000e-01  1.00061014e-13 
 4.60000000e-01 -1.00000000e-01  1.00105732e-13 
 4.40000000e-01 -1.00000000e-01  1.00184083e-13 
 4.20000000e-01 -1.00000000e-01  1.00321911e-13 
 4.00000000e-01 -1.00000000e-01  1.00565282e-13 
 3.80000000e-01 -1.00000000e-01  1.00996560e-13 
 3.60000000e-01 -1.00000000e-01  1.01763444e-13 
 3.40000000e-01 -1.00000000e-01  1.03131531e-13 
 3.20000000e-01 -1.00000000e-01  1.05579727e-13 
 3.00000000e-01 -1.00000000e-01  1.09973794e-13 
 2.80000000e-01 -1.00000000e-01  1.17882900e-13 
 2.60000000e-01 -1.00000000e-01  1.32157023e-13 
 2.40000000e-01 -1.00000000e-01  1.57986693e-13 
 2.20000000e-01 -1.00000000e-01  2.04843531e-13 
 2.00000000e-01 -1.00000000e-01  2.90049541e-13 
 1.80000000e-01 -1.00000000e-01  4.45349031e-13 
 1.60000000e-01 -1.00000000e-01  7.29036075e-13 
 1.40000000e-01 -1.00000000e-01  1.24836115e-12 
 1.20000000e-01 -1.00000000e-01  2.20102147e-12 
 1.00000000e-01 -1.00000000e-01  3.95209491e-12 
 8.00000000e-02 -1.00000000e-01  8.19161778e-12 
 6.00000000e-02 -1.00000000e-01  1.50054051e-11 
 4.00000000e-02 -1.00000000e-01  2.76083549e-11 
 2.00000000e-02 -1.00000000e-01  5.09593690e-11 
-1.73472348e-16 -1.00000000e-01  9.42970539e-11 
-2.00000000e-02 -1.00000000e-01  1.74858977e-10 
-4.00000000e-02 -1.00000000e-01  3.24853983e-10 
-6.00000000e-02 -1.00000000e-01  6.04549954e-10 
-8.00000000e-02 -1.00000000e-01  1.12687192e-09 
-1.00000000e-01 -1.00000000e-01  2.10368981e-09 
-1.20000000e-01 -1.00000000e-01  3.93302175e-09 
-1.40000000e-01 -1.00000000e-01  7.36349613e-09 
-1.60000000e-01 -1.00000000e-01  1.38048144e-08 
-1.80000000e-01 -1.00000000e-01  2.59142538e-08 
-2.00000000e-01 -1.00000000e-01  4.87050282e-08 
-2.20000000e-01 -1.00000000e-01  9.16452681e-08 
-2.40000000e-01 -1.00000000e-01  1.72599349e-07 
-2.60000000e-01 -1.00000000e-01  3.25269947e-07 
-2.80000000e-01 -1.00000000e-01  6.13044623e-07 
-3.00000000e-01 -1.00000000e-01  1.15441619e-06 
-3.20000000e-01 -1.00000000e-01  2.16817518e-06 
-3.40000000e-01 -1.00000000e-01  4.04901852e-06 
-3.60000000e-01 -1.00000000e-01  7.47997687e-06 
-3.80000000e-01 -1.00000000e-01  1.35636957e-05 
-4.00000000e-01 -1.00000000e-01  2.39008581e-05 
-4.20000000e-01 -1.00000000e-01  4.04996965e-05 
-4.40000000e-01 -1.00000000e-01  6.54604276e-05 
-4.60000000e-01 -1.00000000e-01  1.00540231e-04 
-4.80000000e-01 -1.00000000e-01  1.46792289e-04 
-5.00000000e-01 -1.00000000e-01  2.04408559e-04 
-5.20000000e-01 -1.00000000e-01  2.72789532e-04 
-5.40000000e-01 -1.00000000e-01  3.50778989e-04 
-5.60000000e-01 -1.00000000e-01  4.36947708e-04 
-5.80000000e-01 -1.00000000e-01  5.29823077e-04 
-6.00000000e-01 -1.00000000e-01  6.28027217e-04 
-6.20000000e-01 -1.00000000e-01  7.30339135e-04 
-6.40000000e-01 -1.00000000e-01  8.35710795e-04 
-6.60000000e-01 -1.00000000e-01  9.43260123e-04 
-6.80000000e-01 -1.00000000e-01  1.05164254e-03 
-7.00000000e-01 -1.00000000e-01  1.16175985e-03 
-7.20000000e-01 -1.00000000e-01  1.27217325e-03 
-7.40000000e-01 -1.00000000e-01  1.38248995e-03 
-7.60000000e-01 -1.00000000e-01  1.49239247e-03 
-7.80000000e-01 -1.00000000e-01  1.60162527e-03 
-8.00000000e-01 -1.00000000e-01  1.70998367e-03 
-8.20000000e-01 -1.00000000e-01  1.81730457e-03 
-8.40000000e-01 -1.00000000e-01  1.92345901e-03 
-8.60000000e-01 -1.00000000e-01  2.02834592e-03 
-8.80000000e-01 -1.00000000e-01  2.13188713e-03 
-9.00000000e-01 -1.00000000e-01  2.23402322e-03 
-9.20000000e-01 -1.00000000e-01  2.33471022e-03 
-9.40000000e-01 -1.00000000e-01  2.43391677e-03 
-9.60000000e-01 -1.00000000e-01  2.53162198e-03 
-9.80000000e-01 -1.00000000e-01  2.62781350e-03 
-1.00000000e+00 -1.00000000e-01  2.72248605e-03 
-1.02000000e+00 -1.00000000e-01  2.81564015e-03 
-1.04000000e+00 -1.00000000e-01  2.90728110e-03 
-1.06000000e+00 -1.00000000e-01  2.99741809e-03 
-1.08000000e+00 -1.00000000e-01  3.08606352e-03 
-1.10000000e+00 -1.00000000e-01  3.17323241e-03 
-1.12000000e+00 -1.00000000e-01  3.25894187e-03 
-1.14000000e+00 -1.00000000e-01  3.34321070e-03 
-1.16000000e+00 -1.00000000e-01  3.42605908e-03 
-1.18000000e+00 -1.00000000e-01  3.50750823e-03 
-1.20000000e+00 -1.00000000e-01  3.58758018e-03 
 6.00000000e-01 -4.00000000e-01  4.00002917e-13 
 5.80000000e-01 -4.00000000e-01  4.00004414e-13 
 5.60000000e-01 -4.00000000e-01  4.00007434e-13 
 5.40000000e-01 -4.00000000e-01  4.00012603e-13 
 5.20000000e-01 -4.00000000e-01  4.00021495e-13 
 5.00000000e-01 -4.00000000e-01  4.00036868e-13 
 4.80000000e-01 -4.00000000e-01  4.00063573e-13 
 4.60000000e-01 -4.00000000e-01  4.00110166e-13 
 4.40000000e-01 -4.00000000e-01  4.00191803e-13 
 4.20000000e-01 -4.00000000e-01  4.00335411e-13 
 4.00000000e-01 -4.00000000e-01  4.00588988e-13 
 3.80000000e-01 -4.00000000e-01  4.01038354e-13 
 3.60000000e-01 -4.00000000e-01  4.01837399e-13 
 3.40000000e-01 -4.00000000e-01  4.03262861e-13 
 3.20000000e-01 -4.00000000e-01  4.05813728e-13 
 3.00000000e-01 -4.00000000e-01  4.10392072e-13 
 2.80000000e-01 -4.00000000e-01  4.18632664e-13 
 2.60000000e-01 -4.00000000e-01  4.33505611e-13 
 2.40000000e-01 -4.00000000e-01  4.60418616e-13 
 2.20000000e-01 -4.00000000e-01  5.09240591e-13 
 2.00000000e-01 -4.00000000e-01  5.98019623e-13 
 1.80000000e-01 -4.00000000e-01  7.59832340e-13 
 1.60000000e-01 -4.00000000e-01  1.05541645e-12 
 1.40000000e-01 -4.00000000e-01  1.59652057e-12 
 1.20000000e-01 -4.00000000e-01  2.58913353e-12 
 1.00000000e-01 -4.00000000e-01  4.41364322e-12 
 8.00000000e-02 -4.00000000e-01  8.83096196e-12 
 6.00000000e-02 -4.00000000e-01  1.59305037e-11 
 4.00000000e-02 -4.00000000e-01  2.90619927e-11 
 2.00000000e-02 -4.00000000e-01  5.33922962e-11 
-1.73472348e-16 -4.00000000e-01  9.85474708e-11 
-2.00000000e-02 -4.00000000e-01  1.82488000e-10 
-4.00000000e-02 -4.00000000e-01  3.38773535e-10 
-6.00000000e-02 -4.00000000e-01  6.30199604e-10 
-8.00000000e-02 -4.00000000e-01  1.17442757e-09 
-1.00000000e-01 -4.00000000e-01  2.19221454e-09 
-1.20000000e-01 -4.00000000e-01  4.09827701e-09 
-1.40000000e-01 -4.00000000e-01  7.67266181e-09 
-1.60000000e-01 -4.00000000e-01  1.43842702e-08 
-1.80000000e-01 -4.00000000e-01  2.70021035e-08 
-2.00000000e-01 -4.00000000e-01  5.07506266e-08 
-2.20000000e-01 -4.00000000e-01  9.54972502e-08 
-2.40000000e-01 -4.00000000e-01  1.79867579e-07 
-2.60000000e-01 -4.00000000e-01  3.39016400e-07 
-2.80000000e-01 -4.00000000e-01  6.39128376e-07 
-3.00000000e-01 -4.00000000e-01  1.20415438e-06 
-3.20000000e-01 -4.00000000e-01  2.26375352e-06 
-3.40000000e-01 -4.00000000e-01  4.23485771e-06 
-3.60000000e-01 -4.00000000e-01  7.84717807e-06 
-3.80000000e-01 -4.00000000e-01  1.43018926e-05 
-4.00000000e-01 -4.00000000e-01  2.53998755e-05 
-4.20000000e-01 -4.00000000e-01  4.35217894e-05 
-4.40000000e-01 -4.00000000e-01  7.13846976e-05 
-4.60000000e-01 -4.00000000e-01  1.11660303e-04 
-4.80000000e-01 -4.00000000e-01  1.66640295e-04 
-5.00000000e-01 -4.00000000e-01  2.38059393e-04 
-5.20000000e-01 -4.00000000e-01  3.27064058e-04 
-5.40000000e-01 -4.00000000e-01  4.34265618e-04 
-5.60000000e-01 -4.00000000e-01  5.59826361e-04 
-5.80000000e-01 -4.00000000e-01  7.03549763e-04 
-6.00000000e-01 -4.00000000e-01  8.64962205e-04 
-6.20000000e-01 -4.00000000e-01  1.04338228e-03 
-6.40000000e-01 -4.00000000e-01  1.23797780e-03 
-6.60000000e-01 -4.00000000e-01  1.44781201e-03 
-6.80000000e-01 -4.00000000e-01  1.67188075e-03 
-7.00000000e-01 -4.00000000e-01  1.90914202e-03 
-7.20000000e-01 -4.00000000e-01  2.15853924e-03 
-7.40000000e-01 -4.00000000e-01  2.41901936e-03 
-7.60000000e-01 -4.00000000e-01  2.68954669e-03 
-7.80000000e-01 -4.00000000e-01  2.96911333e-03 
-8.00000000e-01 -4.00000000e-01  3.25674685e-03 
-8.20000000e-01 -4.00000000e-01  3.54809970e-03 
-8.40000000e-01 -4.00000000e-01  3.84955317e-03 
-8.60000000e-01 -4.00000000e-01  4.15639230e-03 
-8.80000000e-01 -4.00000000e-01  4.46782592e-03 
-9.00000000e-01 -4.00000000e-01  4.78311236e-03 
-9.20000000e-01 -4.00000000e-01  5.10155914e-03 
-9.40000000e-01 -4.00000000e-01  5.42252214e-03 
-9.60000000e-01 -4.00000000e-01  5.74540434e-03 
-9.80000000e-01 -4.00000000e-01  6.06965420e-03 
-1.00000000e+00 -4.00000000e-01  6.39476385e-03 
-1.02000000e+00 -4.00000000e-01  6.72026709e-03 
-1.04000000e+00 -4.00000000e-01  7.04573730e-03 
-1.06000000e+00 -4.00000000e-01  7.37078524e-03 
-1.08000000e+00 -4.00000000e-01  7.69505687e-03 
-1.10000000e+00 -4.00000000e-01  8.01823115e-03 
-1.12000000e+00 -4.00000000e-01  8.34001792e-03 
-1.14000000e+00 -4.00000000e-01  8.66015578e-03 
-1.16000000e+00 -4.00000000e-01  8.97841007e-03 
-1.18000000e+00 -4.00000000e-01  9.29457092e-03 
-1.20000000e+00 -4.00000000e-01  9.60845140e-03 
 6.00000000e-01 -7.00000000e-01  7.00002921e-13 
 5.80000000e-01 -7.00000000e-01  7.00004420e-13 
 5.60000000e-01 -7.00000000e-01  7.00007445e-13 
 5.40000000e-01 -7.00000000e-01  7.00012622e-13 
 5.20000000e-01 -7.00000000e-01  7.00021527e-13 
 5.00000000e-01 -7.00000000e-01  7.00036923e-13 
 4.80000000e-01 -7.00000000e-01  7.00063666e-13 
 4.60000000e-01 -7.00000000e-01  7.00110328e-13 
 4.40000000e-01 -7.00000000e-01  7.00192085e-13 
 4.20000000e-01 -7.00000000e-01  7.00335904e-13 
 4.00000000e-01 -7.00000000e-01  7.00589855e-13 
 3.80000000e-01 -7.00000000e-01  7.01039883e-13 
 3.60000000e-01 -7.00000000e-01  7.01840104e-13 
 3.40000000e-01 -7.00000000e-01  7.03267664e-13 
 3.20000000e-01 -7.00000000e-01  7.05822286e-13 
 3.00000000e-01 -7.00000000e-01  7.10407371e-13 
 2.80000000e-01 -7.00000000e-01  7.18660314e-13 
 2.60000000e-01 -7.00000000e-01  7.33554976e-13 
 2.40000000e-01 -7.00000000e-01  7.60507621e-13 
 2.20000000e-01 -7.00000000e-01  8.09401326e-13 
 2.00000000e-01 -7.00000000e-01  8.98311292e-13 
 1.80000000e-01 -7.00000000e-01  1.06036207e-12 
 1.60000000e-01 -7.00000000e-01  1.35638100e-12 
 1.40000000e-01 -7.00000000e-01  1.89828193e-12 
 1.20000000e-01 -7.00000000e-01  2.89235624e-12 
 1.00000000e-01 -7.00000000e-01  4.71955168e-12 
 8.00000000e-02 -7.00000000e-01  9.14337343e-12 
 6.00000000e-02 -7.00000000e-01  1.62533668e-11 
 4.00000000e-02 -7.00000000e-01  2.94041872e-11 
 2.00000000e-02 -7.00000000e-01  5.37703090e-11 
-1.73472348e-16 -7.00000000e-01  9.89919605e-11 
-2.00000000e-02 -7.00000000e-01  1.83056070e-10 
-4.00000000e-02 -7.00000000e-01  3.39571709e-10 
-6.00000000e-02 -7.00000000e-01  6.31426905e-10 
-8.00000000e-02 -7.00000000e-01  1.17645643e-09 
-1.00000000e-01 -7.00000000e-01  2.19574306e-09 
-1.20000000e-01 -7.00000000e-01  4.10461623e-09 
-1.40000000e-01 -7.00000000e-01  7.68427963e-09 
-1.60000000e-01 -7.00000000e-01  1.44058271e-08 
-1.80000000e-01 -7.00000000e-01  2.70424436e-08 
-2.00000000e-01 -7.00000000e-01  5.08266657e-08 
-2.20000000e-01 -7.00000000e-01  9.56416169e-08 
-2.40000000e-01 -7.00000000e-01  1.80145060e-07 
-2.60000000e-01 -7.00000000e-01  3.39559891e-07 
-2.80000000e-01 -7.00000000e-01  6.40226391e-07 
-3.00000000e-01 -7.00000000e-01  1.20648244e-06 
-3.20000000e-01 -7.00000000e-01  2.26903104e-06 
-3.40000000e-01 -7.00000000e-01  4.24776962e-06 
-3.60000000e-01 -7.00000000e-01  7.88084521e-06 
-3.80000000e-01 -7.00000000e-01  1.43920023e-05 
-4.00000000e-01 -7.00000000e-01  2.56352535e-05 
-4.20000000e-01 -7.00000000e-01  4.40954527e-05 
-4.40000000e-01 -7.00000000e-01  7.26550210e-05 
-4.60000000e-01 -7.00000000e-01  1.14199715e-04 
-4.80000000e-01 -7.00000000e-01  1.71255786e-04 
-5.00000000e-01 -7.00000000e-01  2.45786758e-04 
-5.20000000e-01 -7.00000000e-01  3.39148103e-04 
-5.40000000e-01 -7.00000000e-01  4.52138467e-04 
-5.60000000e-01 -7.00000000e-01  5.85091746e-04 
-5.80000000e-01 -7.00000000e-01  7.37976691e-04 
-6.00000000e-01 -7.00000000e-01  9.10487974e-04 
-6.20000000e-01 -7.00000000e-01  1.10212259e-03 
-6.40000000e-01 -7.00000000e-01  1.31224062e-03 
-6.60000000e-01 -7.00000000e-01  1.54011174e-03 
-6.80000000e-01 -7.00000000e-01  1.78494984e-03 
-7.00000000e-01 -7.00000000e-01  2.04593825e-03 
-7.20000000e-01 -7.00000000e-01  2.32224776e-03 
-7.40000000e-01 -7.00000000e-01  2.61304927e-03 
-7.60000000e-01 -7.00000000e-01  2.91752261e-03 
-7.80000000e-01 -7.00000000e-01  3.23486248e-03 
-8.00000000e-01 -7.00000000e-01  3.56428243e-03 
-8.20000000e-01 -7.00000000e-01  3.90501748e-03 
-8.40000000e-01 -7.00000000e-01  4.25632564e-03 
-8.60000000e-01 -7.00000000e-01  4.61748889e-03 
-8.80000000e-01 -7.00000000e-01  4.98334642e-03 
-9.00000000e-01 -7.00000000e-01  5.36249386e-03 
-9.20000000e-01 -7.00000000e-01  5.74947663e-03 
-9.40000000e-01 -7.00000000e-01  6.14367431e-03 
-9.60000000e-01 -7.00000000e-01  6.54449029e-03 
-9.80000000e-01 -7.00000000e-01  6.95135149e-03 
-1.00000000e+00 -7.00000000e-01  7.36370781e-03 
-1.02000000e+00 -7.00000000e-01  7.78103172e-03 
-1.04000000e+00 -7.00000000e-01  8.20281777e-03 
-1.06000000e+00 -7.00000000e-01  8.62858209e-03 
-1.08000000e+00 -7.00000000e-01  9.05786189e-03 
-1.10000000e+00 -7.00000000e-01  9.49021497e-03 
-1.12000000e+00 -7.00000000e-01  9.92521921e-03 
-1.14000000e+00 -7.00000000e-01  1.03624721e-02 
-1.16000000e+00 -7.00000000e-01  1.08015900e-02 
-1.18000000e+00 -7.00000000e-01  1.12422080e-02 
-1.20000000e+00 -7.00000000e-01  1.16839793e-02 
 6.00000000e-01 -1.00000000e+00  1.00000292e-12 
 5.80000000e-01 -1.00000000e+00  1.00000442e-12 
 5.60000000e-01 -1.00000000e+00  1.00000745e-12 
 5.40000000e-01 -1.00000000e+00  1.00001263e-12 
 5.20000000e-01 -1.00000000e+00  1.00002153e-12 
 5.00000000e-01 -1.00000000e+00  1.00003694e-12 
 4.80000000e-01 -1.00000000e+00  1.00006369e-12 
 4.60000000e-01 -1.00000000e+00  1.00011037e-12 
 4.40000000e-01 -1.00000000e+00  1.00019215e-12 
 4.20000000e-01 -1.00000000e+00  1.00033602e-12 
 4.00000000e-01 -1.00000000e+00  1.00059007e-12 
 3.80000000e-01 -1.00000000e+00  1.00104025e-12 
 3.60000000e-01 -1.00000000e+00  1.00184076e-12 
 3.40000000e-01 -1.00000000e+00  1.00326883e-12 
 3.20000000e-01 -1.00000000e+00  1.00582436e-12 
 3.00000000e-01 -1.00000000e+00  1.01041108e-12 
 2.80000000e-01 -1.00000000e+00  1.01866684e-12 
 2.60000000e-01 -1.00000000e+00  1.03356688e-12 
 2.40000000e-01 -1.00000000e+00  1.06052892e-12 
 2.20000000e-01 -1.00000000e+00  1.10944015e-12 
 2.00000000e-01 -1.00000000e+00  1.19838173e-12 
 1.80000000e-01 -1.00000000e+00  1.36049046e-12 
 1.60000000e-01 -1.00000000e+00  1.65661524e-12 
 1.40000000e-01 -1.00000000e+00  2.19870988e-12 
 1.20000000e-01 -1.00000000e+00  3.19313871e-12 
 1.00000000e-01 -1.00000000e+00  5.02098552e-12 
 8.00000000e-02 -1.00000000e+00  9.44638529e-12 
 6.00000000e-02 -1.00000000e+00  1.65589145e-11 
 4.00000000e-02 -1.00000000e+00  2.97144262e-11 
 2.00000000e-02 -1.00000000e+00  5.40892401e-11 
-1.73472348e-16 -1.00000000e+00  9.93270241e-11 
-2.00000000e-02 -1.00000000e+00  1.83421125e-10 
-4.00000000e-02 -1.00000000e+00  3.39992615e-10 
-6.00000000e-02 -1.00000000e+00  6.31951987e-10 
-8.00000000e-02 -1.00000000e+00  1.17717618e-09 
-1.00000000e-01 -1.00000000e+00  2.19682726e-09 
-1.20000000e-01 -1.00000000e+00  4.10638438e-09 
-1.40000000e-01 -1.00000000e+00  7.68733542e-09 
-1.60000000e-01 -1.00000000e+00  1.44113185e-08 
-1.80000000e-01 -1.00000000e+00  2.70525770e-08 
-2.00000000e-01 -1.00000000e+00  5.08457607e-08 
-2.20000000e-01 -1.00000000e+00  9.56783512e-08 
-2.40000000e-01 -1.00000000e+00  1.80217869e-07 
-2.60000000e-01 -1.00000000e+00  3.39710687e-07 
-2.80000000e-01 -1.00000000e+00  6.40559504e-07 
-3.00000000e-01 -1.00000000e+00  1.20728282e-06 
-3.20000000e-01 -1.00000000e+00  2.27113648e-06 
-3.40000000e-01 -1.00000000e+00  4.25373713e-06 
-3.60000000e-01 -1.00000000e+00  7.89841630e-06 
-3.80000000e-01 -1.00000000e+00  1.44432924e-05 
-4.00000000e-01 -1.00000000e+00  2.57769663e-05 
-4.20000000e-01 -1.00000000e+00  4.44529473e-05 
-4.40000000e-01 -1.00000000e+00  7.34629868e-05 
-4.60000000e-01 -1.00000000e+00  1.15833154e-04 
-4.80000000e-01 -1.00000000e+00  1.74239339e-04 
-5.00000000e-01 -1.00000000e+00  2.50783090e-04 
-5.20000000e-01 -1.00000000e+00  3.46933919e-04 
-5.40000000e-01 -1.00000000e+00  4.63577058e-04 
-5.60000000e-01 -1.00000000e+00  6.01108073e-04 
-5.80000000e-01 -1.00000000e+00  7.59537990e-04 
-6.00000000e-01 -1.00000000e+00  9.38590755e-04 
-6.20000000e-01 -1.00000000e+00  1.13778561e-03 
-6.40000000e-01 -1.00000000e+00  1.35650280e-03 
-6.60000000e-01 -1.00000000e+00  1.59403375e-03 
-6.80000000e-01 -1.00000000e+00  1.84961823e-03 
-7.00000000e-01 -1.00000000e+00  2.12247101e-03 
-7.20000000e-01 -1.00000000e+00  2.41180053e-03 
-7.40000000e-01 -1.00000000e+00  2.71682163e-03 
-7.60000000e-01 -1.00000000e+00  3.03676395e-03 
-7.80000000e-01 -1.00000000e+00  3.37087726e-03 
-8.00000000e-01 -1.00000000e+00  3.71843463e-03 
-8.20000000e-01 -1.00000000e+00  4.07873408e-03 
-8.40000000e-01 -1.00000000e+00  4.45109929e-03 
-8.60000000e-01 -1.00000000e+00  4.83487953e-03 
-8.80000000e-01 -1.00000000e+00  5.22944929e-03 
-9.00000000e-01 -1.00000000e+00  5.62921145e-03 
-9.20000000e-01 -1.00000000e+00  6.04386549e-03 
-9.40000000e-01 -1.00000000e+00  6.46756449e-03 
-9.60000000e-01 -1.00000000e+00  6.89977574e-03 
-9.80000000e-01 -1.00000000e+00  7.33998721e-03 
-1.00000000e+00 -1.00000000e+00  7.78770657e-03 
-1.02000000e+00 -1.00000000e+00  8.24246031e-03 
-1.04000000e+00 -1.00000000e+00  8.70379284e-03 
-1.06000000e+00 -1.00000000e+00  9.17126572e-03 
-1.08000000e+00 -1.00000000e+00  9.64445684e-03 
-1.10000000e+00 -1.00000000e+00  1.01229598e-02 
-1.12000000e+00 -1.00000000e+00  1.06063833e-02 
-1.14000000e+00 -1.00000000e+00  1.10943502e-02 
-1.16000000e+00 -1.00000000e+00  1.15864974e-02 
-1.18000000e+00 -1.00000000e+00  1.20824753e-02 
-1.20000000e+00 -1.00000000e+00  1.25819466e-02 
