 v-sweep         v(1)            i(vd)          
 0.00000000e+00  0.00000000e+00  0.00000000e+00 
-2.00000000e-02  0.00000000e+00  5.78876242e-14 
-4.00000000e-02  0.00000000e+00  7.54276919e-14 
-6.00000000e-02  0.00000000e+00  9.45808627e-14 
-8.00000000e-02  0.00000000e+00  1.14579060e-13 
-1.00000000e-01  0.00000000e+00  1.34733917e-13 
-1.20000000e-01  0.00000000e+00  1.54871655e-13 
-1.40000000e-01  0.00000000e+00  1.74972302e-13 
-1.60000000e-01  0.00000000e+00  1.95043212e-13 
-1.80000000e-01  0.00000000e+00  2.15093768e-13 
-2.00000000e-01  0.00000000e+00  2.35130403e-13 
-2.20000000e-01  0.00000000e+00  2.55157850e-13 
-2.40000000e-01  0.00000000e+00  2.75179695e-13 
-2.60000000e-01  0.00000000e+00  2.95195812e-13 
-2.80000000e-01  0.00000000e+00  3.15208760e-13 
-3.00000000e-01  0.00000000e+00  3.35219269e-13 
-3.20000000e-01  0.00000000e+00  3.55228316e-13 
-3.40000000e-01  0.00000000e+00  3.75235197e-13 
-3.60000000e-01  0.00000000e+00  3.95241573e-13 
-3.80000000e-01  0.00000000e+00  4.15246421e-13 
-4.00000000e-01  0.00000000e+00  4.35251034e-13 
-4.20000000e-01  0.00000000e+00  4.55254445e-13 
-4.40000000e-01  0.00000000e+00  4.75257985e-13 
-4.60000000e-01  0.00000000e+00  4.95260256e-13 
-4.80000000e-01  0.00000000e+00  5.15263062e-13 
-5.00000000e-01  0.00000000e+00  5.35265474e-13 
-5.20000000e-01  0.00000000e+00  5.55267481e-13 
-5.40000000e-01  0.00000000e+00  5.75269072e-13 
-5.60000000e-01  0.00000000e+00  5.95270241e-13 
-5.80000000e-01  0.00000000e+00  6.15271894e-13 
-6.00000000e-01  0.00000000e+00  6.35273113e-13 
-6.20000000e-01  0.00000000e+00  6.55274352e-13 
-6.40000000e-01  0.00000000e+00  6.75275607e-13 
-6.60000000e-01  0.00000000e+00  6.95276420e-13 
-6.80000000e-01  0.00000000e+00  7.15277244e-13 
-7.00000000e-01  0.00000000e+00  7.35278079e-13 
-7.20000000e-01  0.00000000e+00  7.55278922e-13 
-7.40000000e-01  0.00000000e+00  7.75279316e-13 
-7.60000000e-01  0.00000000e+00  7.95280173e-13 
-7.80000000e-01  0.00000000e+00  8.15280580e-13 
-8.00000000e-01  0.00000000e+00  8.35280992e-13 
-8.20000000e-01  0.00000000e+00  8.55281864e-13 
-8.40000000e-01  0.00000000e+00  8.75282283e-13 
-8.60000000e-01  0.00000000e+00  8.95282706e-13 
-8.80000000e-01  0.00000000e+00  9.15283132e-13 
-9.00000000e-01  0.00000000e+00  9.35283561e-13 
-9.20000000e-01  0.00000000e+00  9.55283992e-13 
-9.40000000e-01  0.00000000e+00  9.75283969e-13 
-9.60000000e-01  0.00000000e+00  9.95284404e-13 
-9.80000000e-01  0.00000000e+00  1.01528484e-12 
-1.00000000e+00  0.00000000e+00  1.03528482e-12 
-1.02000000e+00  0.00000000e+00  1.05528526e-12 
-1.04000000e+00  0.00000000e+00  1.07528525e-12 
-1.06000000e+00  0.00000000e+00  1.09528569e-12 
-1.08000000e+00  0.00000000e+00  1.11528568e-12 
-1.10000000e+00  0.00000000e+00  1.13528612e-12 
-1.12000000e+00  0.00000000e+00  1.15528611e-12 
-1.14000000e+00  0.00000000e+00  1.17528656e-12 
-1.16000000e+00  0.00000000e+00  1.19528655e-12 
-1.18000000e+00  0.00000000e+00  1.21528654e-12 
-1.20000000e+00  0.00000000e+00  1.23528698e-12 
 0.00000000e+00 -3.00000000e-01  0.00000000e+00 
-2.00000000e-02 -3.00000000e-01  1.14719812e-08 
-4.00000000e-02 -3.00000000e-01  1.52039544e-08 
-6.00000000e-02 -3.00000000e-01  1.64926631e-08 
-8.00000000e-02 -3.00000000e-01  1.70035998e-08 
-1.00000000e-01 -3.00000000e-01  1.72387135e-08 
-1.20000000e-01 -3.00000000e-01  1.73617306e-08 
-1.40000000e-01 -3.00000000e-01  1.74330037e-08 
-1.60000000e-01 -3.00000000e-01  1.74882995e-08 
-1.80000000e-01 -3.00000000e-01  1.75136135e-08 
-2.00000000e-01 -3.00000000e-01  1.75321054e-08 
-2.20000000e-01 -3.00000000e-01  1.75459409e-08 
-2.40000000e-01 -3.00000000e-01  1.75565294e-08 
-2.60000000e-01 -3.00000000e-01  1.75648002e-08 
-2.80000000e-01 -3.00000000e-01  1.75713789e-08 
-3.00000000e-01 -3.00000000e-01  1.75766964e-08 
-3.20000000e-01 -3.00000000e-01  1.75810557e-08 
-3.40000000e-01 -3.00000000e-01  1.75846749e-08 
-3.60000000e-01 -3.00000000e-01  1.75877135e-08 
-3.80000000e-01 -3.00000000e-01  1.75902904e-08 
-4.00000000e-01 -3.00000000e-01  1.75924955e-08 
-4.20000000e-01 -3.00000000e-01  1.75943981e-08 
-4.40000000e-01 -3.00000000e-01  1.75960518e-08 
-4.60000000e-01 -3.00000000e-01  1.75974990e-08 
-4.80000000e-01 -3.00000000e-01  1.75987734e-08 
-5.00000000e-01 -3.00000000e-01  1.75999019e-08 
-5.20000000e-01 -3.00000000e-01  1.76009067e-08 
-5.40000000e-01 -3.00000000e-01  1.76018057e-08 
-5.60000000e-01 -3.00000000e-01  1.76026136e-08 
-5.80000000e-01 -3.00000000e-01  1.76033428e-08 
-6.00000000e-01 -3.00000000e-01  1.76040035e-08 
-6.20000000e-01 -3.00000000e-01  1.76046044e-08 
-6.40000000e-01 -3.00000000e-01  1.76051529e-08 
-6.60000000e-01 -3.00000000e-01  1.76056551e-08 
-6.80000000e-01 -3.00000000e-01  1.76061164e-08 
-7.00000000e-01 -3.00000000e-01  1.76065414e-08 
-7.20000000e-01 -3.00000000e-01  1.76069339e-08 
-7.40000000e-01 -3.00000000e-01  1.76072975e-08 
-7.60000000e-01 -3.00000000e-01  1.76076351e-08 
-7.80000000e-01 -3.00000000e-01  1.76079494e-08 
-8.00000000e-01 -3.00000000e-01  1.76082425e-08 
-8.20000000e-01 -3.00000000e-01  1.76085166e-08 
-8.40000000e-01 -3.00000000e-01  1.76087734e-08 
-8.60000000e-01 -3.00000000e-01  1.76090144e-08 
-8.80000000e-01 -3.00000000e-01  1.76092412e-08 
-9.00000000e-01 -3.00000000e-01  1.76094548e-08 
-9.20000000e-01 -3.00000000e-01  1.76096564e-08 
-9.40000000e-01 -3.00000000e-01  1.76098471e-08 
-9.60000000e-01 -3.00000000e-01  1.76100277e-08 
-9.80000000e-01 -3.00000000e-01  1.76101989e-08 
-1.00000000e+00 -3.00000000e-01  1.76103617e-08 
-1.02000000e+00 -3.00000000e-01  1.76105165e-08 
-1.04000000e+00 -3.00000000e-01  1.76106639e-08 
-1.06000000e+00 -3.00000000e-01  1.76108047e-08 
-1.08000000e+00 -3.00000000e-01  1.76109391e-08 
-1.10000000e+00 -3.00000000e-01  1.76110676e-08 
-1.12000000e+00 -3.00000000e-01  1.76111908e-08 
-1.14000000e+00 -3.00000000e-01  1.76113088e-08 
-1.16000000e+00 -3.00000000e-01  1.76114221e-08 
-1.18000000e+00 -3.00000000e-01  1.76115311e-08 
-1.20000000e+00 -3.00000000e-01  1.76116358e-08 
 0.00000000e+00 -6.00000000e-01  0.00000000e+00 
-2.00000000e-02 -6.00000000e-01  1.89069429e-04 
-4.00000000e-02 -6.00000000e-01  3.29152530e-04 
-6.00000000e-02 -6.00000000e-01  4.25062445e-04 
-8.00000000e-02 -6.00000000e-01  4.87986080e-04 
-1.00000000e-01 -6.00000000e-01  5.28968609e-04 
-1.20000000e-01 -6.00000000e-01  5.56238774e-04 
-1.40000000e-01 -6.00000000e-01  5.75128272e-04 
-1.60000000e-01 -6.00000000e-01  5.88863455e-04 
-1.80000000e-01 -6.00000000e-01  5.99349179e-04 
-2.00000000e-01 -6.00000000e-01  6.07713374e-04 
-2.20000000e-01 -6.00000000e-01  6.14637051e-04 
-2.40000000e-01 -6.00000000e-01  6.20996698e-04 
-2.60000000e-01 -6.00000000e-01  6.26040286e-04 
-2.80000000e-01 -6.00000000e-01  6.30556278e-04 
-3.00000000e-01 -6.00000000e-01  6.34653967e-04 
-3.20000000e-01 -6.00000000e-01  6.38412268e-04 
-3.40000000e-01 -6.00000000e-01  6.41889621e-04 
-3.60000000e-01 -6.00000000e-01  6.45130321e-04 
-3.80000000e-01 -6.00000000e-01  6.48168660e-04 
-4.00000000e-01 -6.00000000e-01  6.51031697e-04 
-4.20000000e-01 -6.00000000e-01  6.53741156e-04 
-4.40000000e-01 -6.00000000e-01  6.56314749e-04 
-4.60000000e-01 -6.00000000e-01  6.58767118e-04 
-4.80000000e-01 -6.00000000e-01  6.61110522e-04 
-5.00000000e-01 -6.00000000e-01  6.63355335e-04 
-5.20000000e-01 -6.00000000e-01  6.65510425e-04 
-5.40000000e-01 -6.00000000e-01  6.67583443e-04 
-5.60000000e-01 -6.00000000e-01  6.69581043e-04 
-5.80000000e-01 -6.00000000e-01  6.71509051e-04 
-6.00000000e-01 -6.00000000e-01  6.73372604e-04 
-6.20000000e-01 -6.00000000e-01  6.75176259e-04 
-6.40000000e-01 -6.00000000e-01  6.76924080e-04 
-6.60000000e-01 -6.00000000e-01  6.78619708e-04 
-6.80000000e-01 -6.00000000e-01  6.80266421e-04 
-7.00000000e-01 -6.00000000e-01  6.81867183e-04 
-7.20000000e-01 -6.00000000e-01  6.83424682e-04 
-7.40000000e-01 -6.00000000e-01  6.84941369e-04 
-7.60000000e-01 -6.00000000e-01  6.86419480e-04 
-7.80000000e-01 -6.00000000e-01  6.87861066e-04 
-8.00000000e-01 -6.00000000e-01  6.89268011e-04 
-8.20000000e-01 -6.00000000e-01  6.90642052e-04 
-8.40000000e-01 -6.00000000e-01  6.91984793e-04 
-8.60000000e-01 -6.00000000e-01  6.93297718e-04 
-8.80000000e-01 -6.00000000e-01  6.94582207e-04 
-9.00000000e-01 -6.00000000e-01  6.95839539e-04 
-9.20000000e-01 -6.00000000e-01  6.97070910e-04 
-9.40000000e-01 -6.00000000e-01  6.98277432e-04 
-9.60000000e-01 -6.00000000e-01  6.99460147e-04 
-9.80000000e-01 -6.00000000e-01  7.00620031e-04 
-1.00000000e+00 -6.00000000e-01  7.01757999e-04 
-1.02000000e+00 -6.00000000e-01  7.02874909e-04 
-1.04000000e+00 -6.00000000e-01  7.03971569e-04 
-1.06000000e+00 -6.00000000e-01  7.05048741e-04 
-1.08000000e+00 -6.00000000e-01  7.06107143e-04 
-1.10000000e+00 -6.00000000e-01  7.07147452e-04 
-1.12000000e+00 -6.00000000e-01  7.08170310e-04 
-1.14000000e+00 -6.00000000e-01  7.09176322e-04 
-1.16000000e+00 -6.00000000e-01  7.10166064e-04 
-1.18000000e+00 -6.00000000e-01  7.11140079e-04 
-1.20000000e+00 -6.00000000e-01  7.12098886e-04 
 0.00000000e+00 -9.00000000e-01  0.00000000e+00 
-2.00000000e-02 -9.00000000e-01  6.53078047e-04 
-4.00000000e-02 -9.00000000e-01  1.26199461e-03 
-6.00000000e-02 -9.00000000e-01  1.81838008e-03 
-8.00000000e-02 -9.00000000e-01  2.31883519e-03 
-1.00000000e-01 -9.00000000e-01  2.76376535e-03 
-1.20000000e-01 -9.00000000e-01  3.15607220e-03 
-1.40000000e-01 -9.00000000e-01  3.50004454e-03 
-1.60000000e-01 -9.00000000e-01  3.80057034e-03 
-1.80000000e-01 -9.00000000e-01  4.06264089e-03 
-2.00000000e-01 -9.00000000e-01  4.29106246e-03 
-2.20000000e-01 -9.00000000e-01  4.49029813e-03 
-2.40000000e-01 -9.00000000e-01  4.66438849e-03 
-2.60000000e-01 -9.00000000e-01  4.81692165e-03 
-2.80000000e-01 -9.00000000e-01  4.95103554e-03 
-3.00000000e-01 -9.00000000e-01  5.06944118e-03 
-3.20000000e-01 -9.00000000e-01  5.17445869e-03 
-3.40000000e-01 -9.00000000e-01  5.26805952e-03 
-3.60000000e-01 -9.00000000e-01  5.35653082e-03 
-3.80000000e-01 -9.00000000e-01  5.43137434e-03 
-4.00000000e-01 -9.00000000e-01  5.49915920e-03 
-4.20000000e-01 -9.00000000e-01  5.56086195e-03 
-4.40000000e-01 -9.00000000e-01  5.61730362e-03 
-4.60000000e-01 -9.00000000e-01  5.66917564e-03 
-4.80000000e-01 -9.00000000e-01  5.71706157e-03 
-5.00000000e-01 -9.00000000e-01  5.76145533e-03 
-5.20000000e-01 -9.00000000e-01  5.80277618e-03 
-5.40000000e-01 -9.00000000e-01  5.84138128e-03 
-5.60000000e-01 -9.00000000e-01  5.87757594e-03 
-5.80000000e-01 -9.00000000e-01  5.91162208e-03 
-6.00000000e-01 -9.00000000e-01  5.94374530e-03 
-6.20000000e-01 -9.00000000e-01  5.97414063e-03 
-6.40000000e-01 -9.00000000e-01  6.00297733e-03 
-6.60000000e-01 -9.00000000e-01  6.03040282e-03 
-6.80000000e-01 -9.00000000e-01  6.05654603e-03 
-7.00000000e-01 -9.00000000e-01  6.08152011e-03 
-7.20000000e-01 -9.00000000e-01  6.10542472e-03 
-7.40000000e-01 -9.00000000e-01  6.12834796e-03 
-7.60000000e-01 -9.00000000e-01  6.15036799e-03 
-7.80000000e-01 -9.00000000e-01  6.17155435e-03 
-8.00000000e-01 -9.00000000e-01  6.19196916e-03 
-8.20000000e-01 -9.00000000e-01  6.21166806e-03 
-8.40000000e-01 -9.00000000e-01  6.23070102e-03 
-8.60000000e-01 -9.00000000e-01  6.24911310e-03 
-8.80000000e-01 -9.00000000e-01  6.26694500e-03 
-9.00000000e-01 -9.00000000e-01  6.28423363e-03 
-9.20000000e-01 -9.00000000e-01  6.30101251e-03 
-9.40000000e-01 -9.00000000e-01  6.31731217e-03 
-9.60000000e-01 -9.00000000e-01  6.33316051e-03 
-9.80000000e-01 -9.00000000e-01  6.34858304e-03 
-1.00000000e+00 -9.00000000e-01  6.36360321e-03 
-1.02000000e+00 -9.00000000e-01  6.37824253e-03 
-1.04000000e+00 -9.00000000e-01  6.39252086e-03 
-1.06000000e+00 -9.00000000e-01  6.40645651e-03 
-1.08000000e+00 -9.00000000e-01  6.42006643e-03 
-1.10000000e+00 -9.00000000e-01  6.43336633e-03 
-1.12000000e+00 -9.00000000e-01  6.44637080e-03 
-1.14000000e+00 -9.00000000e-01  6.45909339e-03 
-1.16000000e+00 -9.00000000e-01  6.47154674e-03 
-1.18000000e+00 -9.00000000e-01  6.48374265e-03 
-1.20000000e+00 -9.00000000e-01  6.49569214e-03 
 0.00000000e+00 -1.20000000e+00  0.00000000e+00 
-2.00000000e-02 -1.20000000e+00  9.67710108e-04 
-4.00000000e-02 -1.20000000e+00  1.90321188e-03 
-6.00000000e-02 -1.20000000e+00  2.79818745e-03 
-8.00000000e-02 -1.20000000e+00  3.64713159e-03 
-1.00000000e-01 -1.20000000e+00  4.44700150e-03 
-1.20000000e-01 -1.20000000e+00  5.19672588e-03 
-1.40000000e-01 -1.20000000e+00  5.89668468e-03 
-1.60000000e-01 -1.20000000e+00  6.54824053e-03 
-1.80000000e-01 -1.20000000e+00  7.15336572e-03 
-2.00000000e-01 -1.20000000e+00  7.71437482e-03 
-2.20000000e-01 -1.20000000e+00  8.23375002e-03 
-2.40000000e-01 -1.20000000e+00  8.71403562e-03 
-2.60000000e-01 -1.20000000e+00  9.15777692e-03 
-2.80000000e-01 -1.20000000e+00  9.56748421e-03 
-3.00000000e-01 -1.20000000e+00  9.94560895e-03 
-3.20000000e-01 -1.20000000e+00  1.02945254e-02 
-3.40000000e-01 -1.20000000e+00  1.06165149e-02 
-3.60000000e-01 -1.20000000e+00  1.09137523e-02 
-3.80000000e-01 -1.20000000e+00  1.11993099e-02 
-4.00000000e-01 -1.20000000e+00  1.14521460e-02 
-4.20000000e-01 -1.20000000e+00  1.16860876e-02 
-4.40000000e-01 -1.20000000e+00  1.19028053e-02 
-4.60000000e-01 -1.20000000e+00  1.21038377e-02 
-4.80000000e-01 -1.20000000e+00  1.22905952e-02 
-5.00000000e-01 -1.20000000e+00  1.24643655e-02 
-5.20000000e-01 -1.20000000e+00  1.26263200e-02 
-5.40000000e-01 -1.20000000e+00  1.27775222e-02 
-5.60000000e-01 -1.20000000e+00  1.29189348e-02 
-5.80000000e-01 -1.20000000e+00  1.30514285e-02 
-6.00000000e-01 -1.20000000e+00  1.31757894e-02 
-6.20000000e-01 -1.20000000e+00  1.32927269e-02 
-6.40000000e-01 -1.20000000e+00  1.34028808e-02 
-6.60000000e-01 -1.20000000e+00  1.35068284e-02 
-6.80000000e-01 -1.20000000e+00  1.36050899e-02 
-7.00000000e-01 -1.20000000e+00  1.36981351e-02 
-7.20000000e-01 -1.20000000e+00  1.37863879e-02 
-7.40000000e-01 -1.20000000e+00  1.38702312e-02 
-7.60000000e-01 -1.20000000e+00  1.39500112e-02 
-7.80000000e-01 -1.20000000e+00  1.40260412e-02 
-8.00000000e-01 -1.20000000e+00  1.40986050e-02 
-8.20000000e-01 -1.20000000e+00  1.41679599e-02 
-8.40000000e-01 -1.20000000e+00  1.42343397e-02 
-8.60000000e-01 -1.20000000e+00  1.42979567e-02 
-8.80000000e-01 -1.20000000e+00  1.43590042e-02 
-9.00000000e-01 -1.20000000e+00  1.44176585e-02 
-9.20000000e-01 -1.20000000e+00  1.44740804e-02 
-9.40000000e-01 -1.20000000e+00  1.45284167e-02 
-9.60000000e-01 -1.20000000e+00  1.45808021e-02 
-9.80000000e-01 -1.20000000e+00  1.46313596e-02 
-1.00000000e+00 -1.20000000e+00  1.46802024e-02 
-1.02000000e+00 -1.20000000e+00  1.47274344e-02 
-1.04000000e+00 -1.20000000e+00  1.47731511e-02 
-1.06000000e+00 -1.20000000e+00  1.48174407e-02 
-1.08000000e+00 -1.20000000e+00  1.48603843e-02 
-1.10000000e+00 -1.20000000e+00  1.49020571e-02 
-1.12000000e+00 -1.20000000e+00  1.49425285e-02 
-1.14000000e+00 -1.20000000e+00  1.49818629e-02 
-1.16000000e+00 -1.20000000e+00  1.50201197e-02 
-1.18000000e+00 -1.20000000e+00  1.50573546e-02 
-1.20000000e+00 -1.20000000e+00  1.50936188e-02 
