 v-sweep         v(1)            i(vd)          
 0.00000000e+00 -2.00000000e-01  0.00000000e+00 
-2.00000000e-02 -2.00000000e-01  2.73923105e-08 
-4.00000000e-02 -2.00000000e-01  3.94980421e-08 
-6.00000000e-02 -2.00000000e-01  4.48886019e-08 
-8.00000000e-02 -2.00000000e-01  4.74211390e-08 
-1.00000000e-01 -2.00000000e-01  4.87050282e-08 
-1.20000000e-01 -2.00000000e-01  4.94101652e-08 
-1.40000000e-01 -2.00000000e-01  4.98271518e-08 
-1.60000000e-01 -2.00000000e-01  5.00900443e-08 
-1.80000000e-01 -2.00000000e-01  5.03012886e-08 
-2.00000000e-01 -2.00000000e-01  5.04090893e-08 
-2.20000000e-01 -2.00000000e-01  5.04890575e-08 
-2.40000000e-01 -2.00000000e-01  5.05497916e-08 
-2.60000000e-01 -2.00000000e-01  5.05968987e-08 
-2.80000000e-01 -2.00000000e-01  5.06341239e-08 
-3.00000000e-01 -2.00000000e-01  5.06640294e-08 
-3.20000000e-01 -2.00000000e-01  5.06884074e-08 
-3.40000000e-01 -2.00000000e-01  5.07085385e-08 
-3.60000000e-01 -2.00000000e-01  5.07253552e-08 
-3.80000000e-01 -2.00000000e-01  5.07395488e-08 
-4.00000000e-01 -2.00000000e-01  5.07516397e-08 
-4.20000000e-01 -2.00000000e-01  5.07620259e-08 
-4.40000000e-01 -2.00000000e-01  5.07710155e-08 
-4.60000000e-01 -2.00000000e-01  5.07788499e-08 
-4.80000000e-01 -2.00000000e-01  5.07857207e-08 
-5.00000000e-01 -2.00000000e-01  5.07917812e-08 
-5.20000000e-01 -2.00000000e-01  5.07971553e-08 
-5.40000000e-01 -2.00000000e-01  5.08019443e-08 
-5.60000000e-01 -2.00000000e-01  5.08062311e-08 
-5.80000000e-01 -2.00000000e-01  5.08100847e-08 
-6.00000000e-01 -2.00000000e-01  5.08135623e-08 
-6.20000000e-01 -2.00000000e-01  5.08167122e-08 
-6.40000000e-01 -2.00000000e-01  5.08195750e-08 
-6.60000000e-01 -2.00000000e-01  5.08221852e-08 
-6.80000000e-01 -2.00000000e-01  5.08245723e-08 
-7.00000000e-01 -2.00000000e-01  5.08267617e-08 
-7.20000000e-01 -2.00000000e-01  5.08287750e-08 
-7.40000000e-01 -2.00000000e-01  5.08306311e-08 
-7.60000000e-01 -2.00000000e-01  5.08323463e-08 
-7.80000000e-01 -2.00000000e-01  5.08339351e-08 
-8.00000000e-01 -2.00000000e-01  5.08354099e-08 
-8.20000000e-01 -2.00000000e-01  5.08367817e-08 
-8.40000000e-01 -2.00000000e-01  5.08380601e-08 
-8.60000000e-01 -2.00000000e-01  5.08392539e-08 
-8.80000000e-01 -2.00000000e-01  5.08403705e-08 
-9.00000000e-01 -2.00000000e-01  5.08414167e-08 
-9.20000000e-01 -2.00000000e-01  5.08423986e-08 
-9.40000000e-01 -2.00000000e-01  5.08433216e-08 
-9.60000000e-01 -2.00000000e-01  5.08441905e-08 
-9.80000000e-01 -2.00000000e-01  5.08450097e-08 
-1.00000000e+00 -2.00000000e-01  5.08457831e-08 
-1.02000000e+00 -2.00000000e-01  5.08465141e-08 
-1.04000000e+00 -2.00000000e-01  5.08472061e-08 
-1.06000000e+00 -2.00000000e-01  5.08478619e-08 
-1.08000000e+00 -2.00000000e-01  5.08484842e-08 
-1.10000000e+00 -2.00000000e-01  5.08490753e-08 
-1.12000000e+00 -2.00000000e-01  5.08496375e-08 
-1.14000000e+00 -2.00000000e-01  5.08501727e-08 
-1.16000000e+00 -2.00000000e-01  5.08506827e-08 
-1.18000000e+00 -2.00000000e-01  5.08511693e-08 
-1.20000000e+00 -2.00000000e-01  5.08516339e-08 
 0.00000000e+00 -4.00000000e-01  0.00000000e+00 
-2.00000000e-02 -4.00000000e-01  1.24968998e-05 
-4.00000000e-02 -4.00000000e-01  1.87264860e-05 
-6.00000000e-02 -4.00000000e-01  2.16932931e-05 
-8.00000000e-02 -4.00000000e-01  2.31430585e-05 
-1.00000000e-01 -4.00000000e-01  2.39008581e-05 
-1.20000000e-01 -4.00000000e-01  2.43312514e-05 
-1.40000000e-01 -4.00000000e-01  2.45968666e-05 
-1.60000000e-01 -4.00000000e-01  2.47736542e-05 
-1.80000000e-01 -4.00000000e-01  2.49204811e-05 
-2.00000000e-01 -4.00000000e-01  2.50067823e-05 
-2.20000000e-01 -4.00000000e-01  2.50761984e-05 
-2.40000000e-01 -4.00000000e-01  2.51336563e-05 
-2.60000000e-01 -4.00000000e-01  2.51823876e-05 
-2.80000000e-01 -4.00000000e-01  2.52245699e-05 
-3.00000000e-01 -4.00000000e-01  2.52617107e-05 
-3.20000000e-01 -4.00000000e-01  2.52948805e-05 
-3.40000000e-01 -4.00000000e-01  2.53248579e-05 
-3.60000000e-01 -4.00000000e-01  2.53522217e-05 
-3.80000000e-01 -4.00000000e-01  2.53774110e-05 
-4.00000000e-01 -4.00000000e-01  2.54007652e-05 
-4.20000000e-01 -4.00000000e-01  2.54225507e-05 
-4.40000000e-01 -4.00000000e-01  2.54429805e-05 
-4.60000000e-01 -4.00000000e-01  2.54622264e-05 
-4.80000000e-01 -4.00000000e-01  2.54804297e-05 
-5.00000000e-01 -4.00000000e-01  2.54977070e-05 
-5.20000000e-01 -4.00000000e-01  2.55141564e-05 
-5.40000000e-01 -4.00000000e-01  2.55298606e-05 
-5.60000000e-01 -4.00000000e-01  2.55448902e-05 
-5.80000000e-01 -4.00000000e-01  2.55593059e-05 
-6.00000000e-01 -4.00000000e-01  2.55731603e-05 
-6.20000000e-01 -4.00000000e-01  2.55864994e-05 
-6.40000000e-01 -4.00000000e-01  2.55993632e-05 
-6.60000000e-01 -4.00000000e-01  2.56117875e-05 
-6.80000000e-01 -4.00000000e-01  2.56238036e-05 
-7.00000000e-01 -4.00000000e-01  2.56354398e-05 
-7.20000000e-01 -4.00000000e-01  2.56467212e-05 
-7.40000000e-01 -4.00000000e-01  2.56576705e-05 
-7.60000000e-01 -4.00000000e-01  2.56683081e-05 
-7.80000000e-01 -4.00000000e-01  2.56786526e-05 
-8.00000000e-01 -4.00000000e-01  2.56887208e-05 
-8.20000000e-01 -4.00000000e-01  2.56985281e-05 
-8.40000000e-01 -4.00000000e-01  2.57080887e-05 
-8.60000000e-01 -4.00000000e-01  2.57174154e-05 
-8.80000000e-01 -4.00000000e-01  2.57265202e-05 
-9.00000000e-01 -4.00000000e-01  2.57354140e-05 
-9.20000000e-01 -4.00000000e-01  2.57441069e-05 
-9.40000000e-01 -4.00000000e-01  2.57526084e-05 
-9.60000000e-01 -4.00000000e-01  2.57609272e-05 
-9.80000000e-01 -4.00000000e-01  2.57690715e-05 
-1.00000000e+00 -4.00000000e-01  2.57770487e-05 
-1.02000000e+00 -4.00000000e-01  2.57848660e-05 
-1.04000000e+00 -4.00000000e-01  2.57925300e-05 
-1.06000000e+00 -4.00000000e-01  2.58000469e-05 
-1.08000000e+00 -4.00000000e-01  2.58074226e-05 
-1.10000000e+00 -4.00000000e-01  2.58146624e-05 
-1.12000000e+00 -4.00000000e-01  2.58217715e-05 
-1.14000000e+00 -4.00000000e-01  2.58287549e-05 
-1.16000000e+00 -4.00000000e-01  2.58356169e-05 
-1.18000000e+00 -4.00000000e-01  2.58423621e-05 
-1.20000000e+00 -4.00000000e-01  2.58489945e-05 
 0.00000000e+00 -6.00000000e-01  0.00000000e+00 
-2.00000000e-02 -6.00000000e-01  1.87455793e-04 
-4.00000000e-02 -6.00000000e-01  3.42277299e-04 
-6.00000000e-02 -6.00000000e-01  4.64570754e-04 
-8.00000000e-02 -6.00000000e-01  5.58043197e-04 
-1.00000000e-01 -6.00000000e-01  6.28027217e-04 
-1.20000000e-01 -6.00000000e-01  6.79971836e-04 
-1.40000000e-01 -6.00000000e-01  7.18611286e-04 
-1.60000000e-01 -6.00000000e-01  7.47679235e-04 
-1.80000000e-01 -6.00000000e-01  7.69944416e-04 
-2.00000000e-01 -6.00000000e-01  7.87382775e-04 
-2.20000000e-01 -6.00000000e-01  8.01374436e-04 
-2.40000000e-01 -6.00000000e-01  8.12874667e-04 
-2.60000000e-01 -6.00000000e-01  8.22544721e-04 
-2.80000000e-01 -6.00000000e-01  8.31466359e-04 
-3.00000000e-01 -6.00000000e-01  8.38578363e-04 
-3.20000000e-01 -6.00000000e-01  8.44917916e-04 
-3.40000000e-01 -6.00000000e-01  8.50640634e-04 
-3.60000000e-01 -6.00000000e-01  8.55862117e-04 
-3.80000000e-01 -6.00000000e-01  8.60669668e-04 
-4.00000000e-01 -6.00000000e-01  8.65130282e-04 
-4.20000000e-01 -6.00000000e-01  8.69296164e-04 
-4.40000000e-01 -6.00000000e-01  8.73208593e-04 
-4.60000000e-01 -6.00000000e-01  8.76900660e-04 
-4.80000000e-01 -6.00000000e-01  8.80399239e-04 
-5.00000000e-01 -6.00000000e-01  8.83726418e-04 
-5.20000000e-01 -6.00000000e-01  8.86900558e-04 
-5.40000000e-01 -6.00000000e-01  8.89937083e-04 
-5.60000000e-01 -6.00000000e-01  8.92849073e-04 
-5.80000000e-01 -6.00000000e-01  8.95647720e-04 
-6.00000000e-01 -6.00000000e-01  8.98342678e-04 
-6.20000000e-01 -6.00000000e-01  9.00942341e-04 
-6.40000000e-01 -6.00000000e-01  9.03454054e-04 
-6.60000000e-01 -6.00000000e-01  9.05884289e-04 
-6.80000000e-01 -6.00000000e-01  9.08238778e-04 
-7.00000000e-01 -6.00000000e-01  9.10522631e-04 
-7.20000000e-01 -6.00000000e-01  9.12740420e-04 
-7.40000000e-01 -6.00000000e-01  9.14896260e-04 
-7.60000000e-01 -6.00000000e-01  9.16993866e-04 
-7.80000000e-01 -6.00000000e-01  9.19036608e-04 
-8.00000000e-01 -6.00000000e-01  9.21027556e-04 
-8.20000000e-01 -6.00000000e-01  9.22969509e-04 
-8.40000000e-01 -6.00000000e-01  9.24865035e-04 
-8.60000000e-01 -6.00000000e-01  9.26716492e-04 
-8.80000000e-01 -6.00000000e-01  9.28526055e-04 
-9.00000000e-01 -6.00000000e-01  9.30295730e-04 
-9.20000000e-01 -6.00000000e-01  9.32027377e-04 
-9.40000000e-01 -6.00000000e-01  9.33722722e-04 
-9.60000000e-01 -6.00000000e-01  9.35383370e-04 
-9.80000000e-01 -6.00000000e-01  9.37010815e-04 
-1.00000000e+00 -6.00000000e-01  9.38606456e-04 
-1.02000000e+00 -6.00000000e-01  9.40171598e-04 
-1.04000000e+00 -6.00000000e-01  9.41707465e-04 
-1.06000000e+00 -6.00000000e-01  9.43215206e-04 
-1.08000000e+00 -6.00000000e-01  9.44695901e-04 
-1.10000000e+00 -6.00000000e-01  9.46150565e-04 
-1.12000000e+00 -6.00000000e-01  9.47580156e-04 
-1.14000000e+00 -6.00000000e-01  9.48985578e-04 
-1.16000000e+00 -6.00000000e-01  9.50367684e-04 
-1.18000000e+00 -6.00000000e-01  9.51727284e-04 
-1.20000000e+00 -6.00000000e-01  9.53065142e-04 
 0.00000000e+00 -8.00000000e-01  0.00000000e+00 
-2.00000000e-02 -8.00000000e-01  4.12583123e-04 
-4.00000000e-02 -8.00000000e-01  7.92362377e-04 
-6.00000000e-02 -8.00000000e-01  1.13549493e-03 
-8.00000000e-02 -8.00000000e-01  1.44088719e-03 
-1.00000000e-01 -8.00000000e-01  1.70952740e-03 
-1.20000000e-01 -8.00000000e-01  1.94377500e-03 
-1.40000000e-01 -8.00000000e-01  2.14675713e-03 
-1.60000000e-01 -8.00000000e-01  2.32192428e-03 
-1.80000000e-01 -8.00000000e-01  2.47275225e-03 
-2.00000000e-01 -8.00000000e-01  2.60255537e-03 
-2.20000000e-01 -8.00000000e-01  2.71437784e-03 
-2.40000000e-01 -8.00000000e-01  2.81093935e-03 
-2.60000000e-01 -8.00000000e-01  2.89461821e-03 
-2.80000000e-01 -8.00000000e-01  2.96745969e-03 
-3.00000000e-01 -8.00000000e-01  3.03120002e-03 
-3.20000000e-01 -8.00000000e-01  3.08729879e-03 
-3.40000000e-01 -8.00000000e-01  3.14000123e-03 
-3.60000000e-01 -8.00000000e-01  3.18379142e-03 
-3.80000000e-01 -8.00000000e-01  3.22309120e-03 
-4.00000000e-01 -8.00000000e-01  3.25858085e-03 
-4.20000000e-01 -8.00000000e-01  3.29082308e-03 
-4.40000000e-01 -8.00000000e-01  3.32028405e-03 
-4.60000000e-01 -8.00000000e-01  3.34735091e-03 
-4.80000000e-01 -8.00000000e-01  3.37234614e-03 
-5.00000000e-01 -8.00000000e-01  3.39553935e-03 
-5.20000000e-01 -8.00000000e-01  3.41715679e-03 
-5.40000000e-01 -8.00000000e-01  3.43738910e-03 
-5.60000000e-01 -8.00000000e-01  3.45639765e-03 
-5.80000000e-01 -8.00000000e-01  3.47431961e-03 
-6.00000000e-01 -8.00000000e-01  3.49127212e-03 
-6.20000000e-01 -8.00000000e-01  3.50735566e-03 
-6.40000000e-01 -8.00000000e-01  3.52265683e-03 
-6.60000000e-01 -8.00000000e-01  3.53725057e-03 
-6.80000000e-01 -8.00000000e-01  3.55120204e-03 
-7.00000000e-01 -8.00000000e-01  3.56456814e-03 
-7.20000000e-01 -8.00000000e-01  3.57739874e-03 
-7.40000000e-01 -8.00000000e-01  3.58973776e-03 
-7.60000000e-01 -8.00000000e-01  3.60162404e-03 
-7.80000000e-01 -8.00000000e-01  3.61309200e-03 
-8.00000000e-01 -8.00000000e-01  3.62417234e-03 
-8.20000000e-01 -8.00000000e-01  3.63489249e-03 
-8.40000000e-01 -8.00000000e-01  3.64527703e-03 
-8.60000000e-01 -8.00000000e-01  3.65534812e-03 
-8.80000000e-01 -8.00000000e-01  3.66512573e-03 
-9.00000000e-01 -8.00000000e-01  3.67462797e-03 
-9.20000000e-01 -8.00000000e-01  3.68387129e-03 
-9.40000000e-01 -8.00000000e-01  3.69287065e-03 
-9.60000000e-01 -8.00000000e-01  3.70163973e-03 
-9.80000000e-01 -8.00000000e-01  3.71019107e-03 
-1.00000000e+00 -8.00000000e-01  3.71853616e-03 
-1.02000000e+00 -8.00000000e-01  3.72668557e-03 
-1.04000000e+00 -8.00000000e-01  3.73464907e-03 
-1.06000000e+00 -8.00000000e-01  3.74243567e-03 
-1.08000000e+00 -8.00000000e-01  3.75005374e-03 
-1.10000000e+00 -8.00000000e-01  3.75751100e-03 
-1.12000000e+00 -8.00000000e-01  3.76481469e-03 
-1.14000000e+00 -8.00000000e-01  3.77197151e-03 
-1.16000000e+00 -8.00000000e-01  3.77898771e-03 
-1.18000000e+00 -8.00000000e-01  3.78586917e-03 
-1.20000000e+00 -8.00000000e-01  3.79262136e-03 
 0.00000000e+00 -1.00000000e+00  0.00000000e+00 
-2.00000000e-02 -1.00000000e+00  6.09859334e-04 
-4.00000000e-02 -1.00000000e+00  1.19063087e-03 
-6.00000000e-02 -1.00000000e+00  1.73771492e-03 
-8.00000000e-02 -1.00000000e+00  2.24843340e-03 
-1.00000000e-01 -1.00000000e+00  2.72172778e-03 
-1.20000000e-01 -1.00000000e+00  3.15778943e-03 
-1.40000000e-01 -1.00000000e+00  3.55769750e-03 
-1.60000000e-01 -1.00000000e+00  3.92311304e-03 
-1.80000000e-01 -1.00000000e+00  4.25604742e-03 
-2.00000000e-01 -1.00000000e+00  4.55870053e-03 
-2.20000000e-01 -1.00000000e+00  4.83335229e-03 
-2.40000000e-01 -1.00000000e+00  5.08228991e-03 
-2.60000000e-01 -1.00000000e+00  5.30775727e-03 
-2.80000000e-01 -1.00000000e+00  5.51191796e-03 
-3.00000000e-01 -1.00000000e+00  5.69682800e-03 
-3.20000000e-01 -1.00000000e+00  5.86441614e-03 
-3.40000000e-01 -1.00000000e+00  6.01647115e-03 
-3.60000000e-01 -1.00000000e+00  6.15463522e-03 
-3.80000000e-01 -1.00000000e+00  6.28636417e-03 
-4.00000000e-01 -1.00000000e+00  6.40043357e-03 
-4.20000000e-01 -1.00000000e+00  6.50473505e-03 
-4.40000000e-01 -1.00000000e+00  6.60034523e-03 
-4.60000000e-01 -1.00000000e+00  6.68822018e-03 
-4.80000000e-01 -1.00000000e+00  6.76920629e-03 
-5.00000000e-01 -1.00000000e+00  6.84405116e-03 
-5.20000000e-01 -1.00000000e+00  6.91341407e-03 
-5.40000000e-01 -1.00000000e+00  6.97787591e-03 
-5.60000000e-01 -1.00000000e+00  7.03794828e-03 
-5.80000000e-01 -1.00000000e+00  7.09408175e-03 
-6.00000000e-01 -1.00000000e+00  7.14667332e-03 
-6.20000000e-01 -1.00000000e+00  7.19607305e-03 
-6.40000000e-01 -1.00000000e+00  7.24258991e-03 
-6.60000000e-01 -1.00000000e+00  7.28649698e-03 
-6.80000000e-01 -1.00000000e+00  7.32803592e-03 
-7.00000000e-01 -1.00000000e+00  7.36742095e-03 
-7.20000000e-01 -1.00000000e+00  7.40484227e-03 
-7.40000000e-01 -1.00000000e+00  7.44046910e-03 
-7.60000000e-01 -1.00000000e+00  7.47445223e-03 
-7.80000000e-01 -1.00000000e+00  7.50692632e-03 
-8.00000000e-01 -1.00000000e+00  7.53801185e-03 
-8.20000000e-01 -1.00000000e+00  7.56781686e-03 
-8.40000000e-01 -1.00000000e+00  7.59643839e-03 
-8.60000000e-01 -1.00000000e+00  7.62396381e-03 
-8.80000000e-01 -1.00000000e+00  7.65047195e-03 
-9.00000000e-01 -1.00000000e+00  7.67603404e-03 
-9.20000000e-01 -1.00000000e+00  7.70071463e-03 
-9.40000000e-01 -1.00000000e+00  7.72457228e-03 
-9.60000000e-01 -1.00000000e+00  7.74766027e-03 
-9.80000000e-01 -1.00000000e+00  7.77002713e-03 
-1.00000000e+00 -1.00000000e+00  7.79171718e-03 
-1.02000000e+00 -1.00000000e+00  7.81277094e-03 
-1.04000000e+00 -1.00000000e+00  7.83322558e-03 
-1.06000000e+00 -1.00000000e+00  7.85311517e-03 
-1.08000000e+00 -1.00000000e+00  7.87247111e-03 
-1.10000000e+00 -1.00000000e+00  7.89132227e-03 
-1.12000000e+00 -1.00000000e+00  7.90969533e-03 
-1.14000000e+00 -1.00000000e+00  7.92761494e-03 
-1.16000000e+00 -1.00000000e+00  7.94510393e-03 
-1.18000000e+00 -1.00000000e+00  7.96218347e-03 
-1.20000000e+00 -1.00000000e+00  7.97887323e-03 
 0.00000000e+00 -1.20000000e+00  0.00000000e+00 
-2.00000000e-02 -1.20000000e+00  7.76071135e-04 
-4.00000000e-02 -1.20000000e+00  1.52670187e-03 
-6.00000000e-02 -1.20000000e+00  2.24728025e-03 
-8.00000000e-02 -1.20000000e+00  2.93464030e-03 
-1.00000000e-01 -1.20000000e+00  3.58689548e-03 
-1.20000000e-01 -1.20000000e+00  4.20321679e-03 
-1.40000000e-01 -1.20000000e+00  4.78359431e-03 
-1.60000000e-01 -1.20000000e+00  5.32861386e-03 
-1.80000000e-01 -1.20000000e+00  5.83926927e-03 
-2.00000000e-01 -1.20000000e+00  6.31681841e-03 
-2.20000000e-01 -1.20000000e+00  6.76268174e-03 
-2.40000000e-01 -1.20000000e+00  7.17837530e-03 
-2.60000000e-01 -1.20000000e+00  7.56546820e-03 
-2.80000000e-01 -1.20000000e+00  7.92555537e-03 
-3.00000000e-01 -1.20000000e+00  8.26023837e-03 
-3.20000000e-01 -1.20000000e+00  8.57111001e-03 
-3.40000000e-01 -1.20000000e+00  8.85974057e-03 
-3.60000000e-01 -1.20000000e+00  9.12766487e-03 
-3.80000000e-01 -1.20000000e+00  9.38573638e-03 
-4.00000000e-01 -1.20000000e+00  9.61594865e-03 
-4.20000000e-01 -1.20000000e+00  9.82977026e-03 
-4.40000000e-01 -1.20000000e+00  1.00284953e-02 
-4.60000000e-01 -1.20000000e+00  1.02133399e-02 
-4.80000000e-01 -1.20000000e+00  1.03854401e-02 
-5.00000000e-01 -1.20000000e+00  1.05458516e-02 
-5.20000000e-01 -1.20000000e+00  1.06955509e-02 
-5.40000000e-01 -1.20000000e+00  1.08354375e-02 
-5.60000000e-01 -1.20000000e+00  1.09663375e-02 
-5.80000000e-01 -1.20000000e+00  1.10890075e-02 
-6.00000000e-01 -1.20000000e+00  1.12041386e-02 
-6.20000000e-01 -1.20000000e+00  1.13123613e-02 
-6.40000000e-01 -1.20000000e+00  1.14142496e-02 
-6.60000000e-01 -1.20000000e+00  1.15103259e-02 
-6.80000000e-01 -1.20000000e+00  1.16010650e-02 
-7.00000000e-01 -1.20000000e+00  1.16868985e-02 
-7.20000000e-01 -1.20000000e+00  1.17682183e-02 
-7.40000000e-01 -1.20000000e+00  1.18453804e-02 
-7.60000000e-01 -1.20000000e+00  1.19187086e-02 
-7.80000000e-01 -1.20000000e+00  1.19884968e-02 
-8.00000000e-01 -1.20000000e+00  1.20550125e-02 
-8.20000000e-01 -1.20000000e+00  1.21184990e-02 
-8.40000000e-01 -1.20000000e+00  1.21791779e-02 
-8.60000000e-01 -1.20000000e+00  1.22372509e-02 
-8.80000000e-01 -1.20000000e+00  1.22929024e-02 
-9.00000000e-01 -1.20000000e+00  1.23463003e-02 
-9.20000000e-01 -1.20000000e+00  1.23975982e-02 
-9.40000000e-01 -1.20000000e+00  1.24469366e-02 
-9.60000000e-01 -1.20000000e+00  1.24944442e-02 
-9.80000000e-01 -1.20000000e+00  1.25402388e-02 
-1.00000000e+00 -1.20000000e+00  1.25844288e-02 
-1.02000000e+00 -1.20000000e+00  1.26271135e-02 
-1.04000000e+00 -1.20000000e+00  1.26683844e-02 
-1.06000000e+00 -1.20000000e+00  1.27083259e-02 
-1.08000000e+00 -1.20000000e+00  1.27470155e-02 
-1.10000000e+00 -1.20000000e+00  1.27845249e-02 
-1.12000000e+00 -1.20000000e+00  1.28209205e-02 
-1.14000000e+00 -1.20000000e+00  1.28562635e-02 
-1.16000000e+00 -1.20000000e+00  1.28906108e-02 
-1.18000000e+00 -1.20000000e+00  1.29240150e-02 
-1.20000000e+00 -1.20000000e+00  1.29565251e-02 
