 v-sweep         v(3)            i(vd)          
 6.00000000e-01  0.00000000e+00  1.00000000e-13 
 5.80000000e-01  0.00000000e+00  1.00000000e-13 
 5.60000000e-01  0.00000000e+00  1.00000000e-13 
 5.40000000e-01  0.00000000e+00  1.00000000e-13 
 5.20000000e-01  0.00000000e+00  1.00000000e-13 
 5.00000000e-01  0.00000000e+00  1.00000000e-13 
 4.80000000e-01  0.00000000e+00  1.00000000e-13 
 4.60000000e-01  0.00000000e+00  1.00000000e-13 
 4.40000000e-01  0.00000000e+00  1.00000000e-13 
 4.20000000e-01  0.00000000e+00  1.00000001e-13 
 4.00000000e-01  0.00000000e+00  1.00000002e-13 
 3.80000000e-01  0.00000000e+00  1.00000003e-13 
 3.60000000e-01  0.00000000e+00  1.00000008e-13 
 3.40000000e-01  0.00000000e+00  1.00000017e-13 
 3.20000000e-01  0.00000000e+00  1.00000039e-13 
 3.00000000e-01  0.00000000e+00  1.00000089e-13 
 2.80000000e-01  0.00000000e+00  1.00000202e-13 
 2.60000000e-01  0.00000000e+00  1.00000462e-13 
 2.40000000e-01  0.00000000e+00  1.00001057e-13 
 2.20000000e-01  0.00000000e+00  1.00002428e-13 
 2.00000000e-01  0.00000000e+00  1.00005592e-13 
 1.80000000e-01  0.00000000e+00  1.00012919e-13 
 1.60000000e-01  0.00000000e+00  1.00029931e-13 
 1.40000000e-01  0.00000000e+00  1.00069529e-13 
 1.20000000e-01  0.00000000e+00  1.00161934e-13 
 1.00000000e-01  0.00000000e+00  1.00378098e-13 
 8.00000000e-02  0.00000000e+00  1.00884960e-13 
 6.00000000e-02  0.00000000e+00  1.02076167e-13 
 4.00000000e-02  0.00000000e+00  1.04881893e-13 
 2.00000000e-02  0.00000000e+00  1.11504569e-13 
-1.73472348e-16  0.00000000e+00  1.27169452e-13 
-2.00000000e-02  0.00000000e+00  1.64296326e-13 
-4.00000000e-02  0.00000000e+00  2.52463990e-13 
-6.00000000e-02  0.00000000e+00  4.62238664e-13 
-8.00000000e-02  0.00000000e+00  9.62273096e-13 
-1.00000000e-01  0.00000000e+00  2.15634200e-12 
-1.20000000e-01  0.00000000e+00  6.37868486e-12 
-1.40000000e-01  0.00000000e+00  1.51382622e-11 
-1.60000000e-01  0.00000000e+00  3.61790630e-11 
-1.80000000e-01  0.00000000e+00  8.68006974e-11 
-2.00000000e-01  0.00000000e+00  2.08780312e-10 
-2.20000000e-01  0.00000000e+00  5.03153539e-10 
-2.40000000e-01  0.00000000e+00  1.21461578e-09 
-2.60000000e-01  0.00000000e+00  2.93659917e-09 
-2.80000000e-01  0.00000000e+00  7.11015369e-09 
-3.00000000e-01  0.00000000e+00  1.72387135e-08 
-3.20000000e-01  0.00000000e+00  4.18473783e-08 
-3.40000000e-01  0.00000000e+00  1.01691890e-07 
-3.60000000e-01  0.00000000e+00  2.47237187e-07 
-3.80000000e-01  0.00000000e+00  6.00680548e-07 
-4.00000000e-01  0.00000000e+00  1.45434609e-06 
-4.20000000e-01  0.00000000e+00  3.48701698e-06 
-4.40000000e-01  0.00000000e+00  8.17276596e-06 
-4.60000000e-01  0.00000000e+00  1.83155390e-05 
-4.80000000e-01  0.00000000e+00  3.82011478e-05 
-5.00000000e-01  0.00000000e+00  7.27084604e-05 
-5.20000000e-01  0.00000000e+00  1.25741549e-04 
-5.40000000e-01  0.00000000e+00  1.99117992e-04 
-5.60000000e-01  0.00000000e+00  2.92386187e-04 
-5.80000000e-01  0.00000000e+00  4.03362150e-04 
-6.00000000e-01  0.00000000e+00  5.28968609e-04 
-6.20000000e-01  0.00000000e+00  6.65956471e-04 
-6.40000000e-01  0.00000000e+00  8.11324499e-04 
-6.60000000e-01  0.00000000e+00  9.62490106e-04 
-6.80000000e-01  0.00000000e+00  1.11732118e-03 
-7.00000000e-01  0.00000000e+00  1.27338159e-03 
-7.20000000e-01  0.00000000e+00  1.43138626e-03 
-7.40000000e-01  0.00000000e+00  1.58880322e-03 
-7.60000000e-01  0.00000000e+00  1.74485685e-03 
-7.80000000e-01  0.00000000e+00  1.89896334e-03 
-8.00000000e-01  0.00000000e+00  2.05068951e-03 
-8.20000000e-01  0.00000000e+00  2.19971976e-03 
-8.40000000e-01  0.00000000e+00  2.34583006e-03 
-8.60000000e-01  0.00000000e+00  2.48886746e-03 
-8.80000000e-01  0.00000000e+00  2.62873418e-03 
-9.00000000e-01  0.00000000e+00  2.76537512e-03 
-9.20000000e-01  0.00000000e+00  2.89876814e-03 
-9.40000000e-01  0.00000000e+00  3.02891650e-03 
-9.60000000e-01  0.00000000e+00  3.15584290e-03 
-9.80000000e-01  0.00000000e+00  3.27958487e-03 
-1.00000000e+00  0.00000000e+00  3.40019109e-03 
-1.02000000e+00  0.00000000e+00  3.51771857e-03 
-1.04000000e+00  0.00000000e+00  3.63223035e-03 
-1.06000000e+00  0.00000000e+00  3.74379376e-03 
-1.08000000e+00  0.00000000e+00  3.85247903e-03 
-1.10000000e+00  0.00000000e+00  3.95835816e-03 
-1.12000000e+00  0.00000000e+00  4.06150406e-03 
-1.14000000e+00  0.00000000e+00  4.16198990e-03 
-1.16000000e+00  0.00000000e+00  4.25988855e-03 
-1.18000000e+00  0.00000000e+00  4.35527219e-03 
-1.20000000e+00  0.00000000e+00  4.44821196e-03 
 6.00000000e-01  3.00000000e-01  4.00000000e-13 
 5.80000000e-01  3.00000000e-01  4.00000000e-13 
 5.60000000e-01  3.00000000e-01  4.00000000e-13 
 5.40000000e-01  3.00000000e-01  4.00000000e-13 
 5.20000000e-01  3.00000000e-01  4.00000000e-13 
 5.00000000e-01  3.00000000e-01  4.00000000e-13 
 4.80000000e-01  3.00000000e-01  4.00000000e-13 
 4.60000000e-01  3.00000000e-01  4.00000000e-13 
 4.40000000e-01  3.00000000e-01  4.00000000e-13 
 4.20000000e-01  3.00000000e-01  4.00000000e-13 
 4.00000000e-01  3.00000000e-01  4.00000000e-13 
 3.80000000e-01  3.00000000e-01  4.00000000e-13 
 3.60000000e-01  3.00000000e-01  4.00000000e-13 
 3.40000000e-01  3.00000000e-01  4.00000001e-13 
 3.20000000e-01  3.00000000e-01  4.00000001e-13 
 3.00000000e-01  3.00000000e-01  4.00000003e-13 
 2.80000000e-01  3.00000000e-01  4.00000008e-13 
 2.60000000e-01  3.00000000e-01  4.00000018e-13 
 2.40000000e-01  3.00000000e-01  4.00000043e-13 
 2.20000000e-01  3.00000000e-01  4.00000102e-13 
 2.00000000e-01  3.00000000e-01  4.00000243e-13 
 1.80000000e-01  3.00000000e-01  4.00000581e-13 
 1.60000000e-01  3.00000000e-01  4.00001391e-13 
 1.40000000e-01  3.00000000e-01  4.00003335e-13 
 1.20000000e-01  3.00000000e-01  4.00008007e-13 
 1.00000000e-01  3.00000000e-01  4.00019258e-13 
 8.00000000e-02  3.00000000e-01  4.00046392e-13 
 6.00000000e-02  3.00000000e-01  4.00111925e-13 
 4.00000000e-02  3.00000000e-01  4.00270437e-13 
 2.00000000e-02  3.00000000e-01  4.00654391e-13 
-1.73472348e-16  3.00000000e-01  4.01585722e-13 
-2.00000000e-02  3.00000000e-01  4.03847874e-13 
-4.00000000e-02  3.00000000e-01  4.09349863e-13 
-6.00000000e-02  3.00000000e-01  4.22749420e-13 
-8.00000000e-02  3.00000000e-01  4.55423097e-13 
-1.00000000e-01  3.00000000e-01  5.35197803e-13 
-1.20000000e-01  3.00000000e-01  7.30208928e-13 
-1.40000000e-01  3.00000000e-01  1.20748620e-12 
-1.60000000e-01  3.00000000e-01  2.37696689e-12 
-1.80000000e-01  3.00000000e-01  6.66638467e-12 
-2.00000000e-01  3.00000000e-01  1.57856009e-11 
-2.20000000e-01  3.00000000e-01  3.82175922e-11 
-2.40000000e-01  3.00000000e-01  9.34562827e-11 
-2.60000000e-01  3.00000000e-01  2.29624219e-10 
-2.80000000e-01  3.00000000e-01  5.65634712e-10 
-3.00000000e-01  3.00000000e-01  1.39561365e-09 
-3.20000000e-01  3.00000000e-01  3.44774340e-09 
-3.40000000e-01  3.00000000e-01  8.52637636e-09 
-3.60000000e-01  3.00000000e-01  2.11056990e-08 
-3.80000000e-01  3.00000000e-01  5.22844480e-08 
-4.00000000e-01  3.00000000e-01  1.29590529e-07 
-4.20000000e-01  3.00000000e-01  3.21124155e-07 
-4.40000000e-01  3.00000000e-01  7.94250104e-07 
-4.60000000e-01  3.00000000e-01  1.95302070e-06 
-4.80000000e-01  3.00000000e-01  4.73226561e-06 
-5.00000000e-01  3.00000000e-01  1.11039076e-05 
-5.20000000e-01  3.00000000e-01  2.45686853e-05 
-5.40000000e-01  3.00000000e-01  4.99064299e-05 
-5.60000000e-01  3.00000000e-01  9.18087676e-05 
-5.80000000e-01  3.00000000e-01  1.53328905e-04 
-6.00000000e-01  3.00000000e-01  2.35170467e-04 
-6.20000000e-01  3.00000000e-01  3.35904332e-04 
-6.40000000e-01  3.00000000e-01  4.52747029e-04 
-6.60000000e-01  3.00000000e-01  5.82419682e-04 
-6.80000000e-01  3.00000000e-01  7.21740155e-04 
-7.00000000e-01  3.00000000e-01  8.67904659e-04 
-7.20000000e-01  3.00000000e-01  1.01857094e-03 
-7.40000000e-01  3.00000000e-01  1.17082176e-03 
-7.60000000e-01  3.00000000e-01  1.32589453e-03 
-7.80000000e-01  3.00000000e-01  1.48075798e-03 
-8.00000000e-01  3.00000000e-01  1.63454949e-03 
-8.20000000e-01  3.00000000e-01  1.78661945e-03 
-8.40000000e-01  3.00000000e-01  1.93648514e-03 
-8.60000000e-01  3.00000000e-01  2.08379378e-03 
-8.80000000e-01  3.00000000e-01  2.22829342e-03 
-9.00000000e-01  3.00000000e-01  2.36981016e-03 
-9.20000000e-01  3.00000000e-01  2.50823043e-03 
-9.40000000e-01  3.00000000e-01  2.64348718e-03 
-9.60000000e-01  3.00000000e-01  2.77554923e-03 
-9.80000000e-01  3.00000000e-01  2.90441295e-03 
-1.00000000e+00  3.00000000e-01  3.03009575e-03 
-1.02000000e+00  3.00000000e-01  3.15263108e-03 
-1.04000000e+00  3.00000000e-01  3.27206447e-03 
-1.06000000e+00  3.00000000e-01  3.38845041e-03 
-1.08000000e+00  3.00000000e-01  3.50185000e-03 
-1.10000000e+00  3.00000000e-01  3.61232899e-03 
-1.12000000e+00  3.00000000e-01  3.71995630e-03 
-1.14000000e+00  3.00000000e-01  3.82480287e-03 
-1.16000000e+00  3.00000000e-01  3.92694073e-03 
-1.18000000e+00  3.00000000e-01  4.02644227e-03 
-1.20000000e+00  3.00000000e-01  4.12337970e-03 
 6.00000000e-01  6.00000000e-01  7.00000000e-13 
 5.80000000e-01  6.00000000e-01  7.00000000e-13 
 5.60000000e-01  6.00000000e-01  7.00000000e-13 
 5.40000000e-01  6.00000000e-01  7.00000000e-13 
 5.20000000e-01  6.00000000e-01  7.00000000e-13 
 5.00000000e-01  6.00000000e-01  7.00000000e-13 
 4.80000000e-01  6.00000000e-01  7.00000000e-13 
 4.60000000e-01  6.00000000e-01  7.00000000e-13 
 4.40000000e-01  6.00000000e-01  7.00000000e-13 
 4.20000000e-01  6.00000000e-01  7.00000000e-13 
 4.00000000e-01  6.00000000e-01  7.00000000e-13 
 3.80000000e-01  6.00000000e-01  7.00000000e-13 
 3.60000000e-01  6.00000000e-01  7.00000000e-13 
 3.40000000e-01  6.00000000e-01  7.00000000e-13 
 3.20000000e-01  6.00000000e-01  7.00000000e-13 
 3.00000000e-01  6.00000000e-01  7.00000000e-13 
 2.80000000e-01  6.00000000e-01  7.00000000e-13 
 2.60000000e-01  6.00000000e-01  7.00000001e-13 
 2.40000000e-01  6.00000000e-01  7.00000003e-13 
 2.20000000e-01  6.00000000e-01  7.00000007e-13 
 2.00000000e-01  6.00000000e-01  7.00000016e-13 
 1.80000000e-01  6.00000000e-01  7.00000039e-13 
 1.60000000e-01  6.00000000e-01  7.00000095e-13 
 1.40000000e-01  6.00000000e-01  7.00000233e-13 
 1.20000000e-01  6.00000000e-01  7.00000571e-13 
 1.00000000e-01  6.00000000e-01  7.00001402e-13 
 8.00000000e-02  6.00000000e-01  7.00003445e-13 
 6.00000000e-02  6.00000000e-01  7.00008473e-13 
 4.00000000e-02  6.00000000e-01  7.00020861e-13 
 2.00000000e-02  6.00000000e-01  7.00051416e-13 
-1.73472348e-16  6.00000000e-01  7.00126855e-13 
-2.00000000e-02  6.00000000e-01  7.00313295e-13 
-4.00000000e-02  6.00000000e-01  7.00774523e-13 
-6.00000000e-02  6.00000000e-01  7.01916635e-13 
-8.00000000e-02  6.00000000e-01  7.04747470e-13 
-1.00000000e-01  6.00000000e-01  7.11770774e-13 
-1.20000000e-01  6.00000000e-01  7.29209531e-13 
-1.40000000e-01  6.00000000e-01  7.72553458e-13 
-1.60000000e-01  6.00000000e-01  8.80376188e-13 
-1.80000000e-01  6.00000000e-01  1.14882674e-12 
-2.00000000e-01  6.00000000e-01  1.81777728e-12 
-2.20000000e-01  6.00000000e-01  3.48612317e-12 
-2.40000000e-01  6.00000000e-01  9.76184187e-12 
-2.60000000e-01  6.00000000e-01  2.33333635e-11 
-2.80000000e-01  6.00000000e-01  5.72757367e-11 
-3.00000000e-01  6.00000000e-01  1.42231814e-10 
-3.20000000e-01  6.00000000e-01  3.55035683e-10 
-3.40000000e-01  6.00000000e-01  8.88482324e-10 
-3.60000000e-01  6.00000000e-01  2.22668121e-09 
-3.80000000e-01  6.00000000e-01  5.58603518e-09 
-4.00000000e-01  6.00000000e-01  1.40246600e-08 
-4.20000000e-01  6.00000000e-01  3.52333477e-08 
-4.40000000e-01  6.00000000e-01  8.85520789e-08 
-4.60000000e-01  6.00000000e-01  2.22527449e-07 
-4.80000000e-01  6.00000000e-01  5.58429987e-07 
-5.00000000e-01  6.00000000e-01  1.39517411e-06 
-5.20000000e-01  6.00000000e-01  3.44569634e-06 
-5.40000000e-01  6.00000000e-01  8.28805695e-06 
-5.60000000e-01  6.00000000e-01  1.89340498e-05 
-5.80000000e-01  6.00000000e-01  3.98959575e-05 
-6.00000000e-01  6.00000000e-01  7.60814833e-05 
-6.20000000e-01  6.00000000e-01  1.31119406e-04 
-6.40000000e-01  6.00000000e-01  2.06349295e-04 
-6.60000000e-01  6.00000000e-01  3.00819012e-04 
-6.80000000e-01  6.00000000e-01  4.11981033e-04 
-7.00000000e-01  6.00000000e-01  5.36597637e-04 
-7.20000000e-01  6.00000000e-01  6.71427114e-04 
-7.40000000e-01  6.00000000e-01  8.13574098e-04 
-7.60000000e-01  6.00000000e-01  9.60605642e-04 
-7.80000000e-01  6.00000000e-01  1.11055012e-03 
-8.00000000e-01  6.00000000e-01  1.26139996e-03 
-8.20000000e-01  6.00000000e-01  1.41339214e-03 
-8.40000000e-01  6.00000000e-01  1.56446469e-03 
-8.60000000e-01  6.00000000e-01  1.71394225e-03 
-8.80000000e-01  6.00000000e-01  1.86132323e-03 
-9.00000000e-01  6.00000000e-01  2.00624103e-03 
-9.20000000e-01  6.00000000e-01  2.14843348e-03 
-9.40000000e-01  6.00000000e-01  2.28771909e-03 
-9.60000000e-01  6.00000000e-01  2.42397851e-03 
-9.80000000e-01  6.00000000e-01  2.55714026e-03 
-1.00000000e+00  6.00000000e-01  2.68716963e-03 
-1.02000000e+00  6.00000000e-01  2.81406011e-03 
-1.04000000e+00  6.00000000e-01  2.93782671e-03 
-1.06000000e+00  6.00000000e-01  3.05850082e-03 
-1.08000000e+00  6.00000000e-01  3.17612612e-03 
-1.10000000e+00  6.00000000e-01  3.29075545e-03 
-1.12000000e+00  6.00000000e-01  3.40244835e-03 
-1.14000000e+00  6.00000000e-01  3.51126912e-03 
-1.16000000e+00  6.00000000e-01  3.61728531e-03 
-1.18000000e+00  6.00000000e-01  3.72056654e-03 
-1.20000000e+00  6.00000000e-01  3.82118355e-03 
 6.00000000e-01  9.00000000e-01  1.00000000e-12 
 5.80000000e-01  9.00000000e-01  1.00000000e-12 
 5.60000000e-01  9.00000000e-01  1.00000000e-12 
 5.40000000e-01  9.00000000e-01  1.00000000e-12 
 5.20000000e-01  9.00000000e-01  1.00000000e-12 
 5.00000000e-01  9.00000000e-01  1.00000000e-12 
 4.80000000e-01  9.00000000e-01  1.00000000e-12 
 4.60000000e-01  9.00000000e-01  1.00000000e-12 
 4.40000000e-01  9.00000000e-01  1.00000000e-12 
 4.20000000e-01  9.00000000e-01  1.00000000e-12 
 4.00000000e-01  9.00000000e-01  1.00000000e-12 
 3.80000000e-01  9.00000000e-01  1.00000000e-12 
 3.60000000e-01  9.00000000e-01  1.00000000e-12 
 3.40000000e-01  9.00000000e-01  1.00000000e-12 
 3.20000000e-01  9.00000000e-01  1.00000000e-12 
 3.00000000e-01  9.00000000e-01  1.00000000e-12 
 2.80000000e-01  9.00000000e-01  1.00000000e-12 
 2.60000000e-01  9.00000000e-01  1.00000000e-12 
 2.40000000e-01  9.00000000e-01  1.00000000e-12 
 2.20000000e-01  9.00000000e-01  1.00000000e-12 
 2.00000000e-01  9.00000000e-01  1.00000000e-12 
 1.80000000e-01  9.00000000e-01  1.00000000e-12 
 1.60000000e-01  9.00000000e-01  1.00000001e-12 
 1.40000000e-01  9.00000000e-01  1.00000002e-12 
 1.20000000e-01  9.00000000e-01  1.00000005e-12 
 1.00000000e-01  9.00000000e-01  1.00000013e-12 
 8.00000000e-02  9.00000000e-01  1.00000033e-12 
 6.00000000e-02  9.00000000e-01  1.00000082e-12 
 4.00000000e-02  9.00000000e-01  1.00000204e-12 
 2.00000000e-02  9.00000000e-01  1.00000510e-12 
-1.73472348e-16  9.00000000e-01  1.00001277e-12 
-2.00000000e-02  9.00000000e-01  1.00003195e-12 
-4.00000000e-02  9.00000000e-01  1.00008002e-12 
-6.00000000e-02  9.00000000e-01  1.00020056e-12 
-8.00000000e-02  9.00000000e-01  1.00050307e-12 
-1.00000000e-01  9.00000000e-01  1.00126281e-12 
-1.20000000e-01  9.00000000e-01  1.00317222e-12 
-1.40000000e-01  9.00000000e-01  1.00797438e-12 
-1.60000000e-01  9.00000000e-01  1.02005969e-12 
-1.80000000e-01  9.00000000e-01  1.05049799e-12 
-2.00000000e-01  9.00000000e-01  1.12720743e-12 
-2.20000000e-01  9.00000000e-01  1.32065851e-12 
-2.40000000e-01  9.00000000e-01  1.80883475e-12 
-2.60000000e-01  9.00000000e-01  3.04155496e-12 
-2.80000000e-01  9.00000000e-01  7.76217214e-12 
-3.00000000e-01  9.00000000e-01  1.80952074e-11 
-3.20000000e-01  9.00000000e-01  4.42447133e-11 
-3.40000000e-01  9.00000000e-01  1.10460746e-10 
-3.60000000e-01  9.00000000e-01  2.78234089e-10 
-3.80000000e-01  9.00000000e-01  7.03576247e-10 
-4.00000000e-01  9.00000000e-01  1.78253179e-09 
-4.20000000e-01  9.00000000e-01  4.52100397e-09 
-4.40000000e-01  9.00000000e-01  1.14749691e-08 
-4.60000000e-01  9.00000000e-01  2.91406166e-08 
-4.80000000e-01  9.00000000e-01  7.40240552e-08 
-5.00000000e-01  9.00000000e-01  1.88016298e-07 
-5.20000000e-01  9.00000000e-01  4.76911368e-07 
-5.40000000e-01  9.00000000e-01  1.20475823e-06 
-5.60000000e-01  9.00000000e-01  3.01099124e-06 
-5.80000000e-01  9.00000000e-01  7.34003797e-06 
-6.00000000e-01  9.00000000e-01  1.70244966e-05 
-6.20000000e-01  9.00000000e-01  3.64471261e-05 
-6.40000000e-01  9.00000000e-01  7.05330481e-05 
-6.60000000e-01  9.00000000e-01  1.23050382e-04 
-6.80000000e-01  9.00000000e-01  1.95508028e-04 
-7.00000000e-01  9.00000000e-01  2.87085624e-04 
-7.20000000e-01  9.00000000e-01  3.95306652e-04 
-7.40000000e-01  9.00000000e-01  5.16958707e-04 
-7.60000000e-01  9.00000000e-01  6.48806111e-04 
-7.80000000e-01  9.00000000e-01  7.87956435e-04 
-8.00000000e-01  9.00000000e-01  9.31981920e-04 
-8.20000000e-01  9.00000000e-01  1.07891877e-03 
-8.40000000e-01  9.00000000e-01  1.22676328e-03 
-8.60000000e-01  9.00000000e-01  1.37576857e-03 
-8.80000000e-01  9.00000000e-01  1.52388199e-03 
-9.00000000e-01  9.00000000e-01  1.67043709e-03 
-9.20000000e-01  9.00000000e-01  1.81493996e-03 
-9.40000000e-01  9.00000000e-01  1.95703032e-03 
-9.60000000e-01  9.00000000e-01  2.09645107e-03 
-9.80000000e-01  9.00000000e-01  2.23302460e-03 
-1.00000000e+00  9.00000000e-01  2.36663443e-03 
-1.02000000e+00  9.00000000e-01  2.49721110e-03 
-1.04000000e+00  9.00000000e-01  2.62472115e-03 
-1.06000000e+00  9.00000000e-01  2.74915872e-03 
-1.08000000e+00  9.00000000e-01  2.87053898e-03 
-1.10000000e+00  9.00000000e-01  2.98889304e-03 
-1.12000000e+00  9.00000000e-01  3.10426399e-03 
-1.14000000e+00  9.00000000e-01  3.21670383e-03 
-1.16000000e+00  9.00000000e-01  3.32627103e-03 
-1.18000000e+00  9.00000000e-01  3.43302869e-03 
-1.20000000e+00  9.00000000e-01  3.53704302e-03 
 6.00000000e-01  1.20000000e+00  1.30000000e-12 
 5.80000000e-01  1.20000000e+00  1.30000000e-12 
 5.60000000e-01  1.20000000e+00  1.30000000e-12 
 5.40000000e-01  1.20000000e+00  1.30000000e-12 
 5.20000000e-01  1.20000000e+00  1.30000000e-12 
 5.00000000e-01  1.20000000e+00  1.30000000e-12 
 4.80000000e-01  1.20000000e+00  1.30000000e-12 
 4.60000000e-01  1.20000000e+00  1.30000000e-12 
 4.40000000e-01  1.20000000e+00  1.30000000e-12 
 4.20000000e-01  1.20000000e+00  1.30000000e-12 
 4.00000000e-01  1.20000000e+00  1.30000000e-12 
 3.80000000e-01  1.20000000e+00  1.30000000e-12 
 3.60000000e-01  1.20000000e+00  1.30000000e-12 
 3.40000000e-01  1.20000000e+00  1.30000000e-12 
 3.20000000e-01  1.20000000e+00  1.30000000e-12 
 3.00000000e-01  1.20000000e+00  1.30000000e-12 
 2.80000000e-01  1.20000000e+00  1.30000000e-12 
 2.60000000e-01  1.20000000e+00  1.30000000e-12 
 2.40000000e-01  1.20000000e+00  1.30000000e-12 
 2.20000000e-01  1.20000000e+00  1.30000000e-12 
 2.00000000e-01  1.20000000e+00  1.30000000e-12 
 1.80000000e-01  1.20000000e+00  1.30000000e-12 
 1.60000000e-01  1.20000000e+00  1.30000000e-12 
 1.40000000e-01  1.20000000e+00  1.30000000e-12 
 1.20000000e-01  1.20000000e+00  1.30000001e-12 
 1.00000000e-01  1.20000000e+00  1.30000001e-12 
 8.00000000e-02  1.20000000e+00  1.30000004e-12 
 6.00000000e-02  1.20000000e+00  1.30000010e-12 
 4.00000000e-02  1.20000000e+00  1.30000024e-12 
 2.00000000e-02  1.20000000e+00  1.30000061e-12 
-1.73472348e-16  1.20000000e+00  1.30000153e-12 
-2.00000000e-02  1.20000000e+00  1.30000388e-12 
-4.00000000e-02  1.20000000e+00  1.30000981e-12 
-6.00000000e-02  1.20000000e+00  1.30002483e-12 
-8.00000000e-02  1.20000000e+00  1.30006292e-12 
-1.00000000e-01  1.20000000e+00  1.30015949e-12 
-1.20000000e-01  1.20000000e+00  1.30040455e-12 
-1.40000000e-01  1.20000000e+00  1.30102675e-12 
-1.60000000e-01  1.20000000e+00  1.30260736e-12 
-1.80000000e-01  1.20000000e+00  1.30662495e-12 
-2.00000000e-01  1.20000000e+00  1.31684215e-12 
-2.20000000e-01  1.20000000e+00  1.34284212e-12 
-2.40000000e-01  1.20000000e+00  1.40903439e-12 
