 time            v(in1)          v(in2)          v(out)         
 0.00000000e+00  0.00000000e+00  0.00000000e+00  5.12367994e-09 
 1.00000000e-13  0.00000000e+00  0.00000000e+00  5.12367948e-09 
 2.00000000e-13  0.00000000e+00  0.00000000e+00  5.12367959e-09 
 4.00000000e-13  0.00000000e+00  0.00000000e+00  5.12367981e-09 
 8.00000000e-13  0.00000000e+00  0.00000000e+00  5.12367948e-09 
 1.60000000e-12  0.00000000e+00  0.00000000e+00  5.12367970e-09 
 3.20000000e-12  0.00000000e+00  0.00000000e+00  5.12368070e-09 
 6.40000000e-12  0.00000000e+00  0.00000000e+00  5.12367959e-09 
 1.28000000e-11  0.00000000e+00  0.00000000e+00  5.12368037e-09 
 2.28000000e-11  0.00000000e+00  0.00000000e+00  5.12367970e-09 
 3.28000000e-11  0.00000000e+00  0.00000000e+00  5.12367976e-09 
 4.28000000e-11  0.00000000e+00  0.00000000e+00  5.12367981e-09 
 5.28000000e-11  0.00000000e+00  0.00000000e+00  5.12367976e-09 
 6.28000000e-11  0.00000000e+00  0.00000000e+00  5.12367948e-09 
 7.28000000e-11  0.00000000e+00  0.00000000e+00  5.12367987e-09 
 8.28000000e-11  0.00000000e+00  0.00000000e+00  5.12367954e-09 
 9.28000000e-11  0.00000000e+00  0.00000000e+00  5.12367965e-09 
 1.00000000e-10  0.00000000e+00  0.00000000e+00  5.12368004e-09 
 1.00012326e-10  1.47915101e-04  0.00000000e+00  4.74607304e-05 
 1.00036979e-10  4.43745302e-04  0.00000000e+00  1.41195120e-04 
 1.00086284e-10  1.03540570e-03  0.00000000e+00  3.21744371e-04 
 1.00184894e-10  2.21872651e-03  0.00000000e+00  6.56524316e-04 
 1.00382114e-10  4.58536812e-03  0.00000000e+00  1.23081344e-03 
 1.00776554e-10  9.31865134e-03  0.00000000e+00  2.06625884e-03 
 1.01336177e-10  1.60341212e-02  0.00000000e+00  2.72313687e-03 
 1.01884656e-10  2.26158692e-02  0.00000000e+00  2.96721604e-03 
 1.02531065e-10  3.03727797e-02  0.00000000e+00  2.96564615e-03 
 1.03218432e-10  3.86211892e-02  0.00000000e+00  2.78056320e-03 
 1.04078144e-10  4.89377334e-02  0.00000000e+00  2.44243965e-03 
 1.05042772e-10  6.05132612e-02  0.00000000e+00  2.03773572e-03 
 1.06275769e-10  7.53092338e-02  0.00000000e+00  1.57505671e-03 
 1.07740872e-10  9.28904695e-02  0.00000000e+00  1.14424137e-03 
 1.09705286e-10  1.16463427e-01  0.00000000e+00  7.49466217e-04 
 1.12193031e-10  1.46316369e-01  0.00000000e+00  4.60873276e-04 
 1.15591023e-10  1.87092272e-01  0.00000000e+00  2.76230226e-04 
 1.19966359e-10  2.39596305e-01  0.00000000e+00  1.96691692e-04 
 1.25620761e-10  3.07449136e-01  0.00000000e+00  1.86675254e-04 
 1.33250574e-10  3.99006894e-01  0.00000000e+00  2.17462121e-04 
 1.43250574e-10  5.19006894e-01  0.00000000e+00  2.82452364e-04 
 1.53250574e-10  6.39006894e-01  0.00000000e+00  3.62486531e-04 
 1.60643246e-10  7.27718952e-01  0.00000000e+00  3.95174800e-04 
 1.65618946e-10  7.87427358e-01  0.00000000e+00  3.48714736e-04 
 1.70402562e-10  8.44830741e-01  0.00000000e+00  2.36366006e-04 
 1.74419677e-10  8.93036127e-01  0.00000000e+00  1.36281854e-04 
 1.78181185e-10  9.38174223e-01  0.00000000e+00  5.25190278e-05 
 1.82269633e-10  9.87235596e-01  0.00000000e+00 -2.31250635e-05 
 1.86217208e-10  1.03460649e+00  0.00000000e+00 -8.49079212e-05 
 1.90124204e-10  1.08149045e+00  0.00000000e+00 -1.40406188e-04 
 1.94274368e-10  1.13129242e+00  0.00000000e+00 -1.89982032e-04 
 1.98599820e-10  1.18319784e+00  0.00000000e+00 -2.24021313e-04 
 2.00000000e-10  1.20000000e+00  0.00000000e+00 -2.29864303e-04 
 2.00001009e-10  1.20000000e+00  0.00000000e+00 -2.33601280e-04 
 2.00003026e-10  1.20000000e+00  0.00000000e+00 -2.41069637e-04 
 2.00007061e-10  1.20000000e+00  0.00000000e+00 -2.55972806e-04 
 2.00015131e-10  1.20000000e+00  0.00000000e+00 -2.85645372e-04 
 2.00031271e-10  1.20000000e+00  0.00000000e+00 -3.44458646e-04 
 2.00063551e-10  1.20000000e+00  0.00000000e+00 -4.59983396e-04 
 2.00128110e-10  1.20000000e+00  0.00000000e+00 -6.82826513e-04 
 2.00257229e-10  1.20000000e+00  0.00000000e+00 -1.09722938e-03 
 2.00515466e-10  1.20000000e+00  0.00000000e+00 -1.81228286e-03 
 2.01031940e-10  1.20000000e+00  0.00000000e+00 -2.86519703e-03 
 2.01821531e-10  1.20000000e+00  0.00000000e+00 -3.75810801e-03 
 2.02557802e-10  1.20000000e+00  0.00000000e+00 -4.06347492e-03 
 2.03456924e-10  1.20000000e+00  0.00000000e+00 -4.04654009e-03 
 2.04365377e-10  1.20000000e+00  0.00000000e+00 -3.79063146e-03 
 2.05523729e-10  1.20000000e+00  0.00000000e+00 -3.32215960e-03 
 2.06751925e-10  1.20000000e+00  0.00000000e+00 -2.78644932e-03 
 2.08307226e-10  1.20000000e+00  0.00000000e+00 -2.16360537e-03 
 2.10013316e-10  1.20000000e+00  0.00000000e+00 -1.59999765e-03 
 2.12171604e-10  1.20000000e+00  0.00000000e+00 -1.06604174e-03 
 2.14587197e-10  1.20000000e+00  0.00000000e+00 -6.58972825e-04 
 2.17603147e-10  1.20000000e+00  0.00000000e+00 -3.44013869e-04 
 2.21018162e-10  1.20000000e+00  0.00000000e+00 -1.47648443e-04 
 2.25296202e-10  1.20000000e+00  0.00000000e+00 -2.97218429e-05 
 2.30367217e-10  1.20000000e+00  0.00000000e+00  2.25644560e-05 
 2.37111792e-10  1.20000000e+00  0.00000000e+00  3.76017704e-05 
 2.45090631e-10  1.20000000e+00  0.00000000e+00  3.28994417e-05 
 2.54049841e-10  1.20000000e+00  0.00000000e+00  2.46728258e-05 
 2.63866073e-10  1.20000000e+00  0.00000000e+00  1.80174692e-05 
 2.73866073e-10  1.20000000e+00  0.00000000e+00  1.35337983e-05 
 2.83866073e-10  1.20000000e+00  0.00000000e+00  1.05014853e-05 
 2.93866073e-10  1.20000000e+00  0.00000000e+00  8.36163601e-06 
 3.03866073e-10  1.20000000e+00  0.00000000e+00  6.80177192e-06 
 3.13866073e-10  1.20000000e+00  0.00000000e+00  5.63177840e-06 
 3.23866073e-10  1.20000000e+00  0.00000000e+00  4.73383711e-06 
 3.33866073e-10  1.20000000e+00  0.00000000e+00  4.03060921e-06 
 3.43866073e-10  1.20000000e+00  0.00000000e+00  3.47040249e-06 
 3.53866073e-10  1.20000000e+00  0.00000000e+00  3.01734356e-06 
 3.63866073e-10  1.20000000e+00  0.00000000e+00  2.64609818e-06 
 3.73866073e-10  1.20000000e+00  0.00000000e+00  2.33831122e-06 
 3.83866073e-10  1.20000000e+00  0.00000000e+00  2.08047050e-06 
 3.93866073e-10  1.20000000e+00  0.00000000e+00  1.86244297e-06 
 4.03866073e-10  1.20000000e+00  0.00000000e+00  1.67652325e-06 
 4.13866073e-10  1.20000000e+00  0.00000000e+00  1.53160538e-06 
 4.23866073e-10  1.20000000e+00  0.00000000e+00  1.38464445e-06 
 4.33866073e-10  1.20000000e+00  0.00000000e+00  1.25102558e-06 
 4.43866073e-10  1.20000000e+00  0.00000000e+00  1.15149951e-06 
 4.53866073e-10  1.20000000e+00  0.00000000e+00  1.05669775e-06 
 4.63866073e-10  1.20000000e+00  0.00000000e+00  9.76147326e-07 
 4.73866073e-10  1.20000000e+00  0.00000000e+00  9.02923280e-07 
 4.83866073e-10  1.20000000e+00  0.00000000e+00  8.38252459e-07 
 4.93866073e-10  1.20000000e+00  0.00000000e+00  7.79917545e-07 
 5.03866073e-10  1.20000000e+00  0.00000000e+00  7.27574337e-07 
 5.13866073e-10  1.20000000e+00  0.00000000e+00  6.80228189e-07 
 5.23866073e-10  1.20000000e+00  0.00000000e+00  6.37366123e-07 
 5.33866073e-10  1.20000000e+00  0.00000000e+00  5.98398413e-07 
 5.43866073e-10  1.20000000e+00  0.00000000e+00  5.62892414e-07 
 5.53866073e-10  1.20000000e+00  0.00000000e+00  5.30443246e-07 
 5.63866073e-10  1.20000000e+00  0.00000000e+00  5.00717221e-07 
 5.73866073e-10  1.20000000e+00  0.00000000e+00  4.73418099e-07 
 5.83866073e-10  1.20000000e+00  0.00000000e+00  4.48291693e-07 
 5.93866073e-10  1.20000000e+00  0.00000000e+00  4.25114613e-07 
 6.03866073e-10  1.20000000e+00  0.00000000e+00  4.03691964e-07 
 6.13866073e-10  1.20000000e+00  0.00000000e+00  3.83852167e-07 
 6.23866073e-10  1.20000000e+00  0.00000000e+00  3.65444152e-07 
 6.33866073e-10  1.20000000e+00  0.00000000e+00  3.48334283e-07 
 6.43866073e-10  1.20000000e+00  0.00000000e+00  3.32404112e-07 
 6.53866073e-10  1.20000000e+00  0.00000000e+00  3.17548317e-07 
 6.63866073e-10  1.20000000e+00  0.00000000e+00  3.03673019e-07 
 6.73866073e-10  1.20000000e+00  0.00000000e+00  2.90694322e-07 
 6.83866073e-10  1.20000000e+00  0.00000000e+00  2.78537071e-07 
 6.93866073e-10  1.20000000e+00  0.00000000e+00  2.67133790e-07 
 7.03866073e-10  1.20000000e+00  0.00000000e+00  2.56423757e-07 
 7.13866073e-10  1.20000000e+00  0.00000000e+00  2.46352214e-07 
 7.23866073e-10  1.20000000e+00  0.00000000e+00  2.36869684e-07 
 7.33866073e-10  1.20000000e+00  0.00000000e+00  2.27931367e-07 
 7.43866073e-10  1.20000000e+00  0.00000000e+00  2.19496627e-07 
 7.53866073e-10  1.20000000e+00  0.00000000e+00  2.11528535e-07 
 7.63866073e-10  1.20000000e+00  0.00000000e+00  2.03993469e-07 
 7.73866073e-10  1.20000000e+00  0.00000000e+00  1.96860773e-07 
 7.83866073e-10  1.20000000e+00  0.00000000e+00  1.90102444e-07 
 7.93866073e-10  1.20000000e+00  0.00000000e+00  1.83692864e-07 
 8.03866073e-10  1.20000000e+00  0.00000000e+00  1.77608562e-07 
 8.13866073e-10  1.20000000e+00  0.00000000e+00  1.71827998e-07 
 8.23866073e-10  1.20000000e+00  0.00000000e+00  1.66331383e-07 
 8.33866073e-10  1.20000000e+00  0.00000000e+00  1.61100507e-07 
 8.43866073e-10  1.20000000e+00  0.00000000e+00  1.56118588e-07 
 8.53866073e-10  1.20000000e+00  0.00000000e+00  1.51370149e-07 
 8.63866073e-10  1.20000000e+00  0.00000000e+00  1.46840887e-07 
 8.73866073e-10  1.20000000e+00  0.00000000e+00  1.42517580e-07 
 8.83866073e-10  1.20000000e+00  0.00000000e+00  1.38387980e-07 
 8.93866073e-10  1.20000000e+00  0.00000000e+00  1.34440735e-07 
 9.03866073e-10  1.20000000e+00  0.00000000e+00  1.30665309e-07 
 9.13866073e-10  1.20000000e+00  0.00000000e+00  1.27051915e-07 
 9.23866073e-10  1.20000000e+00  0.00000000e+00  1.23591450e-07 
 9.33866073e-10  1.20000000e+00  0.00000000e+00  1.20275438e-07 
 9.43866073e-10  1.20000000e+00  0.00000000e+00  1.17095982e-07 
 9.53866073e-10  1.20000000e+00  0.00000000e+00  1.14045716e-07 
 9.63866073e-10  1.20000000e+00  0.00000000e+00  1.11117762e-07 
 9.73866073e-10  1.20000000e+00  0.00000000e+00  1.08305690e-07 
 9.83866073e-10  1.20000000e+00  0.00000000e+00  1.05603489e-07 
 9.93866073e-10  1.20000000e+00  0.00000000e+00  1.03005531e-07 
 1.00386607e-09  1.20000000e+00  0.00000000e+00  1.00506542e-07 
 1.01386607e-09  1.20000000e+00  0.00000000e+00  9.81015752e-08 
 1.02386607e-09  1.20000000e+00  0.00000000e+00  9.57859911e-08 
 1.03386607e-09  1.20000000e+00  0.00000000e+00  9.35554292e-08 
 1.04386607e-09  1.20000000e+00  0.00000000e+00  9.14057932e-08 
 1.05386607e-09  1.20000000e+00  0.00000000e+00  8.93332280e-08 
 1.06386607e-09  1.20000000e+00  0.00000000e+00  8.73341065e-08 
 1.07386607e-09  1.20000000e+00  0.00000000e+00  8.54050103e-08 
 1.08386607e-09  1.20000000e+00  0.00000000e+00  8.35427181e-08 
 1.09386607e-09  1.20000000e+00  0.00000000e+00  8.17441914e-08 
 1.10000000e-09  1.20000000e+00  0.00000000e+00  8.05295993e-08 
 1.10000562e-09  1.20000000e+00  6.74080040e-05  1.48615034e-05 
 1.10001685e-09  1.20000000e+00  2.02224012e-04  4.43043291e-05 
 1.10003932e-09  1.20000000e+00  4.71856028e-04  1.02479981e-04 
 1.10008426e-09  1.20000000e+00  1.01112006e-03  2.16038057e-04 
 1.10017414e-09  1.20000000e+00  2.08964813e-03  4.32344864e-04 
 1.10035389e-09  1.20000000e+00  4.24670425e-03  8.24471787e-04 
 1.10071340e-09  1.20000000e+00  8.56081651e-03  1.46650261e-03 
 1.10143242e-09  1.20000000e+00  1.71890410e-02  2.30940429e-03 
 1.10228624e-09  1.20000000e+00  2.74349351e-02  2.77497557e-03 
 1.10322719e-09  1.20000000e+00  3.87262587e-02  2.89219149e-03 
 1.10424851e-09  1.20000000e+00  5.09821684e-02  2.77525615e-03 
 1.10546187e-09  1.20000000e+00  6.55424783e-02  2.49848750e-03 
 1.10686543e-09  1.20000000e+00  8.23851392e-02  2.13394597e-03 
 1.10859212e-09  1.20000000e+00  1.03105390e-01  1.72369380e-03 
 1.11064373e-09  1.20000000e+00  1.27724812e-01  1.34090885e-03 
 1.11313963e-09  1.20000000e+00  1.57675538e-01  1.02166182e-03 
 1.11615191e-09  1.20000000e+00  1.93822896e-01  7.94671713e-04 
 1.11980530e-09  1.20000000e+00  2.37663636e-01  6.66233046e-04 
 1.12413684e-09  1.20000000e+00  2.89642049e-01  6.34106406e-04 
 1.12773107e-09  1.20000000e+00  3.32772887e-01  6.67670009e-04 
 1.12978042e-09  1.20000000e+00  3.57365051e-01  7.04252136e-04 
 1.13142035e-09  1.20000000e+00  3.77044234e-01  7.41455384e-04 
 1.13302767e-09  1.20000000e+00  3.96331991e-01  7.84484298e-04 
 1.13465830e-09  1.20000000e+00  4.15899629e-01  8.34484631e-04 
 1.13628181e-09  1.20000000e+00  4.35381745e-01  8.91247767e-04 
 1.13783464e-09  1.20000000e+00  4.54015650e-01  9.52719947e-04 
 1.13935941e-09  1.20000000e+00  4.72312871e-01  1.01999146e-03 
 1.14102659e-09  1.20000000e+00  4.92319136e-01  1.10203165e-03 
 1.14255124e-09  1.20000000e+00  5.10614871e-01  1.18549059e-03 
 1.14416000e-09  1.20000000e+00  5.29920020e-01  1.28320986e-03 
 1.14568453e-09  1.20000000e+00  5.48214307e-01  1.38588229e-03 
 1.14729800e-09  1.20000000e+00  5.67575980e-01  1.50634503e-03 
 1.14887238e-09  1.20000000e+00  5.86468517e-01  1.63669602e-03 
 1.15054220e-09  1.20000000e+00  6.06506454e-01  1.79009851e-03 
 1.15220746e-09  1.20000000e+00  6.26489540e-01  1.95987751e-03 
 1.15398201e-09  1.20000000e+00  6.47784100e-01  2.16057797e-03 
 1.15579287e-09  1.20000000e+00  6.69514480e-01  2.38736814e-03 
 1.15775405e-09  1.20000000e+00  6.93048629e-01  2.65873002e-03 
 1.15984876e-09  1.20000000e+00  7.18185167e-01  2.98436122e-03 
 1.16069698e-09  1.20000000e+00  7.28363764e-01  3.14878516e-03 
 1.16139740e-09  1.20000000e+00  7.36768761e-01  3.29613486e-03 
 1.16211133e-09  1.20000000e+00  7.45335904e-01  3.42455256e-03 
 1.16276803e-09  1.20000000e+00  7.53216340e-01  3.47265058e-03 
 1.16340788e-09  1.20000000e+00  7.60894558e-01  3.40115367e-03 
 1.16405156e-09  1.20000000e+00  7.68618741e-01  3.16766742e-03 
 1.16474122e-09  1.20000000e+00  7.76894604e-01  2.70735022e-03 
 1.16543711e-09  1.20000000e+00  7.85245330e-01  2.01441271e-03 
 1.16622980e-09  1.20000000e+00  7.94757637e-01  9.63732578e-04 
 1.16710453e-09  1.20000000e+00  8.05254368e-01 -4.67449566e-04 
 1.16821333e-09  1.20000000e+00  8.18559947e-01 -2.57284528e-03 
 1.16939289e-09  1.20000000e+00  8.32714722e-01 -5.01427856e-03 
 1.17039568e-09  1.20000000e+00  8.44748177e-01 -7.14159485e-03 
 1.17141135e-09  1.20000000e+00  8.56936255e-01 -9.26619422e-03 
 1.17256322e-09  1.20000000e+00  8.70758687e-01 -1.15835439e-02 
 1.17367959e-09  1.20000000e+00  8.84155130e-01 -1.37065811e-02 
 1.17491914e-09  1.20000000e+00  8.99029690e-01 -1.59090816e-02 
 1.17618900e-09  1.20000000e+00  9.14268059e-01 -1.80013180e-02 
 1.17763955e-09  1.20000000e+00  9.31674588e-01 -2.02097494e-02 
 1.17919528e-09  1.20000000e+00  9.50343345e-01 -2.23991940e-02 
 1.18101332e-09  1.20000000e+00  9.72159805e-01 -2.47783203e-02 
 1.18304830e-09  1.20000000e+00  9.96579595e-01 -2.72799254e-02 
 1.18537250e-09  1.20000000e+00  1.02446999e+00 -3.00080395e-02 
 1.18775332e-09  1.20000000e+00  1.05303988e+00 -3.27301500e-02 
 1.19027566e-09  1.20000000e+00  1.08330797e+00 -3.55987403e-02 
 1.19284823e-09  1.20000000e+00  1.11417882e+00 -3.85663323e-02 
 1.19555935e-09  1.20000000e+00  1.14671220e+00 -4.18022124e-02 
 1.19833800e-09  1.20000000e+00  1.18005606e+00 -4.53032027e-02 
 1.20000000e-09  1.20000000e+00  1.20000000e+00 -4.75161325e-02 
 1.20000192e-09  1.20000000e+00  1.20000000e+00 -4.75231394e-02 
 1.20000577e-09  1.20000000e+00  1.20000000e+00 -4.75371523e-02 
 1.20001347e-09  1.20000000e+00  1.20000000e+00 -4.75651721e-02 
 1.20002887e-09  1.20000000e+00  1.20000000e+00 -4.76211880e-02 
 1.20005966e-09  1.20000000e+00  1.20000000e+00 -4.77331203e-02 
 1.20012124e-09  1.20000000e+00  1.20000000e+00 -4.79565525e-02 
 1.20024440e-09  1.20000000e+00  1.20000000e+00 -4.84014332e-02 
 1.20049072e-09  1.20000000e+00  1.20000000e+00 -4.92815151e-02 
 1.20098336e-09  1.20000000e+00  1.20000000e+00 -5.09928022e-02 
 1.20176611e-09  1.20000000e+00  1.20000000e+00 -5.35543172e-02 
 1.20249192e-09  1.20000000e+00  1.20000000e+00 -5.57527372e-02 
 1.20340604e-09  1.20000000e+00  1.20000000e+00 -5.82914301e-02 
 1.20434122e-09  1.20000000e+00  1.20000000e+00 -6.06497772e-02 
 1.20560667e-09  1.20000000e+00  1.20000000e+00 -6.35453756e-02 
 1.20702022e-09  1.20000000e+00  1.20000000e+00 -6.63215642e-02 
 1.20878118e-09  1.20000000e+00  1.20000000e+00 -6.87206803e-02 
 1.21066257e-09  1.20000000e+00  1.20000000e+00 -6.93377615e-02 
 1.21250427e-09  1.20000000e+00  1.20000000e+00 -6.72118548e-02 
 1.21427356e-09  1.20000000e+00  1.20000000e+00 -6.19633978e-02 
 1.21616896e-09  1.20000000e+00  1.20000000e+00 -5.22471669e-02 
 1.21816467e-09  1.20000000e+00  1.20000000e+00 -3.68565273e-02 
 1.21991509e-09  1.20000000e+00  1.20000000e+00 -1.85295995e-02 
 1.22128748e-09  1.20000000e+00  1.20000000e+00 -6.53177569e-04 
 1.22240231e-09  1.20000000e+00  1.20000000e+00  1.63973359e-02 
 1.22341489e-09  1.20000000e+00  1.20000000e+00  3.40485533e-02 
 1.22434221e-09  1.20000000e+00  1.20000000e+00  5.22244002e-02 
 1.22535962e-09  1.20000000e+00  1.20000000e+00  7.46100657e-02 
 1.22645120e-09  1.20000000e+00  1.20000000e+00  1.01551193e-01 
 1.22790554e-09  1.20000000e+00  1.20000000e+00  1.42175567e-01 
 1.22927067e-09  1.20000000e+00  1.20000000e+00  1.85071737e-01 
 1.23033209e-09  1.20000000e+00  1.20000000e+00  2.21323394e-01 
 1.23138943e-09  1.20000000e+00  1.20000000e+00  2.59659033e-01 
 1.23256308e-09  1.20000000e+00  1.20000000e+00  3.04499822e-01 
 1.23369274e-09  1.20000000e+00  1.20000000e+00  3.49640282e-01 
 1.23487263e-09  1.20000000e+00  1.20000000e+00  3.98543522e-01 
 1.23601898e-09  1.20000000e+00  1.20000000e+00  4.47508948e-01 
 1.23726799e-09  1.20000000e+00  1.20000000e+00  5.02201372e-01 
 1.23851180e-09  1.20000000e+00  1.20000000e+00  5.57781422e-01 
 1.23991072e-09  1.20000000e+00  1.20000000e+00  6.21279600e-01 
 1.24132502e-09  1.20000000e+00  1.20000000e+00  6.86169184e-01 
 1.24282045e-09  1.20000000e+00  1.20000000e+00  7.55063871e-01 
 1.24424736e-09  1.20000000e+00  1.20000000e+00  8.20512937e-01 
 1.24547887e-09  1.20000000e+00  1.20000000e+00  8.76178103e-01 
 1.24648249e-09  1.20000000e+00  1.20000000e+00  9.20424242e-01 
 1.24732746e-09  1.20000000e+00  1.20000000e+00  9.56406372e-01 
 1.24810530e-09  1.20000000e+00  1.20000000e+00  9.88040319e-01 
 1.24886644e-09  1.20000000e+00  1.20000000e+00  1.01714547e+00 
 1.24963659e-09  1.20000000e+00  1.20000000e+00  1.04423487e+00 
 1.25046093e-09  1.20000000e+00  1.20000000e+00  1.07008246e+00 
 1.25129601e-09  1.20000000e+00  1.20000000e+00  1.09258759e+00 
 1.25233284e-09  1.20000000e+00  1.20000000e+00  1.11525287e+00 
 1.25313862e-09  1.20000000e+00  1.20000000e+00  1.12904428e+00 
 1.25381041e-09  1.20000000e+00  1.20000000e+00  1.13829327e+00 
 1.25454891e-09  1.20000000e+00  1.20000000e+00  1.14648068e+00 
 1.25547599e-09  1.20000000e+00  1.20000000e+00  1.15437711e+00 
 1.25633261e-09  1.20000000e+00  1.20000000e+00  1.15982354e+00 
 1.25729006e-09  1.20000000e+00  1.20000000e+00  1.16440574e+00 
 1.25821199e-09  1.20000000e+00  1.20000000e+00  1.16773592e+00 
 1.25933682e-09  1.20000000e+00  1.20000000e+00  1.17083269e+00 
 1.26050678e-09  1.20000000e+00  1.20000000e+00  1.17330004e+00 
 1.26195474e-09  1.20000000e+00  1.20000000e+00  1.17570081e+00 
 1.26356162e-09  1.20000000e+00  1.20000000e+00  1.17784836e+00 
 1.26564002e-09  1.20000000e+00  1.20000000e+00  1.18015743e+00 
 1.26814606e-09  1.20000000e+00  1.20000000e+00  1.18250519e+00 
 1.27154056e-09  1.20000000e+00  1.20000000e+00  1.18518195e+00 
 1.27556681e-09  1.20000000e+00  1.20000000e+00  1.18780123e+00 
 1.27932084e-09  1.20000000e+00  1.20000000e+00  1.18981705e+00 
 1.28305698e-09  1.20000000e+00  1.20000000e+00  1.19149366e+00 
 1.28658757e-09  1.20000000e+00  1.20000000e+00  1.19282546e+00 
 1.29023143e-09  1.20000000e+00  1.20000000e+00  1.19398404e+00 
 1.29384514e-09  1.20000000e+00  1.20000000e+00  1.19494988e+00 
 1.29764911e-09  1.20000000e+00  1.20000000e+00  1.19580107e+00 
 1.30151288e-09  1.20000000e+00  1.20000000e+00  1.19651993e+00 
 1.30561551e-09  1.20000000e+00  1.20000000e+00  1.19714988e+00 
 1.30985338e-09  1.20000000e+00  1.20000000e+00  1.19768167e+00 
