 time            v(A)            v(B)            v(A_GT_B)       v(A_LT_B)       v(A_EQ_B)      
 0.00000000e+00  0.00000000e+00  0.00000000e+00  5.12368022e-09  5.12368010e-09  1.20000000e+00 
 1.00000000e-13  0.00000000e+00  0.00000000e+00  5.12368015e-09  5.12367704e-09  1.20000000e+00 
 2.00000000e-13  0.00000000e+00  0.00000000e+00  5.12368059e-09  5.12367393e-09  1.20000000e+00 
 4.00000000e-13  0.00000000e+00  0.00000000e+00  5.12368081e-09  5.12366816e-09  1.20000000e+00 
 8.00000000e-13  0.00000000e+00  0.00000000e+00  5.12368081e-09  5.12365994e-09  1.20000000e+00 
 1.60000000e-12  0.00000000e+00  0.00000000e+00  5.12368059e-09  5.12365328e-09  1.20000000e+00 
 3.20000000e-12  0.00000000e+00  0.00000000e+00  5.12367992e-09  5.12365095e-09  1.20000000e+00 
 6.40000000e-12  0.00000000e+00  0.00000000e+00  5.12367992e-09  5.12365950e-09  1.20000000e+00 
 1.28000000e-11  0.00000000e+00  0.00000000e+00  5.12368015e-09  5.12367382e-09  1.20000000e+00 
 2.28000000e-11  0.00000000e+00  0.00000000e+00  5.12368009e-09  5.12367937e-09  1.20000000e+00 
 3.28000000e-11  0.00000000e+00  0.00000000e+00  5.12368031e-09  5.12368026e-09  1.20000000e+00 
 4.28000000e-11  0.00000000e+00  0.00000000e+00  5.12368048e-09  5.12368042e-09  1.20000000e+00 
 5.28000000e-11  0.00000000e+00  0.00000000e+00  5.12368009e-09  5.12368042e-09  1.20000000e+00 
 6.28000000e-11  0.00000000e+00  0.00000000e+00  5.12368042e-09  5.12368026e-09  1.20000000e+00 
 7.28000000e-11  0.00000000e+00  0.00000000e+00  5.12368026e-09  5.12367998e-09  1.20000000e+00 
 8.28000000e-11  0.00000000e+00  0.00000000e+00  5.12368009e-09  5.12368020e-09  1.20000000e+00 
 9.28000000e-11  0.00000000e+00  0.00000000e+00  5.12368048e-09  5.12368026e-09  1.20000000e+00 
 1.00000000e-10  0.00000000e+00  0.00000000e+00  5.12368048e-09  5.12368037e-09  1.20000000e+00 
 1.00008367e-10  1.00408586e-04  0.00000000e+00  4.45212196e-05  1.08451876e-05  1.20000919e+00 
 1.00025102e-10  3.01225759e-04  0.00000000e+00  1.32864351e-04  3.23057133e-05  1.20002721e+00 
 1.00058572e-10  7.02860104e-04  0.00000000e+00  3.05470775e-04  7.39302744e-05  1.20006117e+00 
 1.00125511e-10  1.50612880e-03  0.00000000e+00  6.34894948e-04  1.52197921e-04  1.20012132e+00 
 1.00259389e-10  3.11266618e-03  0.00000000e+00  1.23459593e-03  2.90332156e-04  1.20021463e+00 
 1.00527145e-10  6.32574094e-03  0.00000000e+00  2.22604341e-03  5.03641621e-04  1.20031974e+00 
 1.01062658e-10  1.27518905e-02  0.00000000e+00  3.56167559e-03  7.44275517e-04  1.20034291e+00 
 1.01618831e-10  1.94259671e-02  0.00000000e+00  4.28579253e-03  8.16964027e-04  1.20024976e+00 
 1.02284484e-10  2.74138123e-02  0.00000000e+00  4.61237333e-03  7.77990924e-04  1.20012044e+00 
 1.02957882e-10  3.54945841e-02  0.00000000e+00  4.59165269e-03  6.71428925e-04  1.20001713e+00 
 1.03810680e-10  4.57281619e-02  0.00000000e+00  4.31865116e-03  5.08126862e-04  1.19993604e+00 
 1.04734905e-10  5.68188601e-02  0.00000000e+00  3.89504074e-03  3.37067868e-04  1.19989549e+00 
 1.05926476e-10  7.11177085e-02  0.00000000e+00  3.32569446e-03  1.55757757e-04  1.19988460e+00 
 1.07231720e-10  8.67806393e-02  0.00000000e+00  2.76794264e-03  1.42846635e-05  1.19989767e+00 
 1.08920487e-10  1.07045846e-01  0.00000000e+00  2.19425246e-03 -9.53757718e-05  1.19992488e+00 
 1.10568787e-10  1.26825448e-01  0.00000000e+00  1.78244224e-03 -1.45724409e-04  1.19995005e+00 
 1.12561360e-10  1.50736323e-01  0.00000000e+00  1.43449050e-03 -1.62601616e-04  1.19997303e+00 
 1.14589467e-10  1.75073600e-01  0.00000000e+00  1.20260146e-03 -1.52977623e-04  1.19998847e+00 
 1.17046574e-10  2.04558889e-01  0.00000000e+00  1.03279927e-03 -1.26463329e-04  1.19999940e+00 
 1.19627114e-10  2.35525371e-01  0.00000000e+00  9.42734998e-04 -9.42056356e-05  1.20000503e+00 
 1.22731924e-10  2.72783087e-01  0.00000000e+00  9.11303749e-04 -5.86200351e-05  1.20000753e+00 
 1.26064131e-10  3.12769573e-01  0.00000000e+00  9.39084356e-04 -2.78616328e-05  1.20000767e+00 
 1.30060737e-10  3.60728838e-01  0.00000000e+00  1.02100443e-03 -2.70646657e-06  1.20000653e+00 
 1.32798534e-10  3.93582408e-01  0.00000000e+00  1.08450296e-03  4.50304425e-06  1.20000539e+00 
 1.35669667e-10  4.28036009e-01  0.00000000e+00  1.09771079e-03 -5.96939413e-06  1.20000387e+00 
 1.37883332e-10  4.54599984e-01  0.00000000e+00  1.03002333e-03 -3.04323423e-05  1.20000261e+00 
 1.39912870e-10  4.78954441e-01  0.00000000e+00  8.87215463e-04 -6.51883150e-05  1.20000154e+00 
 1.42046214e-10  5.04554572e-01  0.00000000e+00  6.53927275e-04 -1.10987919e-04  1.20000064e+00 
 1.44350163e-10  5.32201952e-01  0.00000000e+00  3.11914952e-04 -1.68524266e-04  1.19999993e+00 
 1.46538943e-10  5.58467311e-01  0.00000000e+00 -9.06727892e-05 -2.28466637e-04  1.19999946e+00 
 1.48812643e-10  5.85751711e-01  0.00000000e+00 -5.80910296e-04 -2.94244229e-04  1.19999914e+00 
 1.51003928e-10  6.12047139e-01  0.00000000e+00 -1.12301293e-03 -3.61102797e-04  1.19999887e+00 
 1.53207852e-10  6.38494227e-01  0.00000000e+00 -1.74423211e-03 -4.32982318e-04  1.19999852e+00 
 1.55287350e-10  6.63448206e-01  0.00000000e+00 -2.41354869e-03 -5.07163279e-04  1.19999804e+00 
 1.57309399e-10  6.87712792e-01  0.00000000e+00 -3.16039773e-03 -5.87795234e-04  1.19999733e+00 
 1.59192770e-10  7.10313235e-01  0.00000000e+00 -3.96161613e-03 -6.72692015e-04  1.19999640e+00 
 1.61010630e-10  7.32127557e-01  0.00000000e+00 -4.85252047e-03 -7.64857817e-04  1.19999527e+00 
 1.62740124e-10  7.52881492e-01  0.00000000e+00 -5.82475701e-03 -8.61080515e-04  1.19999405e+00 
 1.64474420e-10  7.73693035e-01  0.00000000e+00 -6.93261709e-03 -9.62226478e-04  1.19999292e+00 
 1.66250242e-10  7.95002902e-01  0.00000000e+00 -8.20355964e-03 -1.06439120e-03  1.19999215e+00 
 1.68191612e-10  8.18299347e-01  0.00000000e+00 -9.73241989e-03 -1.16656259e-03  1.19999208e+00 
 1.70395257e-10  8.44743090e-01  0.00000000e+00 -1.16030555e-02 -1.26119669e-03  1.19999320e+00 
 1.73148560e-10  8.77782723e-01  0.00000000e+00 -1.40685755e-02 -1.34332705e-03  1.19999570e+00 
 1.76062037e-10  9.12744447e-01  0.00000000e+00 -1.67794418e-02 -1.39756079e-03  1.19999835e+00 
 1.80260233e-10  9.63122802e-01  0.00000000e+00 -2.08797499e-02 -1.44685182e-03  1.20000074e+00 
 1.84833286e-10  1.01799943e+00  0.00000000e+00 -2.57018078e-02 -1.47953137e-03  1.20000169e+00 
 1.89065061e-10  1.06878074e+00  0.00000000e+00 -3.06183874e-02 -1.49308796e-03  1.20000159e+00 
 1.93133711e-10  1.11760453e+00  0.00000000e+00 -3.58995595e-02 -1.48151010e-03  1.20000172e+00 
 1.95438558e-10  1.14526269e+00  0.00000000e+00 -3.91943552e-02 -1.45268954e-03  1.20000254e+00 
 1.97049977e-10  1.16459973e+00  0.00000000e+00 -4.16548661e-02 -1.38413395e-03  1.20000576e+00 
 1.98597049e-10  1.18316459e+00  0.00000000e+00 -4.41512713e-02 -1.23543949e-03  1.20001310e+00 
 2.00000000e-10  1.20000000e+00  0.00000000e+00 -4.65363693e-02 -1.01600455e-03  1.20002415e+00 
 2.00002345e-10  1.20000000e+00  0.00000000e+00 -4.65522896e-02 -1.01861801e-03  1.20002167e+00 
 2.00007035e-10  1.20000000e+00  0.00000000e+00 -4.65841055e-02 -1.02382745e-03  1.20001672e+00 
 2.00016416e-10  1.20000000e+00  0.00000000e+00 -4.66475888e-02 -1.03414180e-03  1.20000698e+00 
 2.00035177e-10  1.20000000e+00  0.00000000e+00 -4.67739661e-02 -1.05435668e-03  1.19998810e+00 
 2.00072699e-10  1.20000000e+00  0.00000000e+00 -4.70243860e-02 -1.09316418e-03  1.19995260e+00 
 2.00147744e-10  1.20000000e+00  0.00000000e+00 -4.75160658e-02 -1.16454568e-03  1.19989004e+00 
 2.00297832e-10  1.20000000e+00  0.00000000e+00 -4.84641701e-02 -1.28428346e-03  1.19979397e+00 
 2.00598010e-10  1.20000000e+00  0.00000000e+00 -5.02297298e-02 -1.44502716e-03  1.19968835e+00 
 2.01198364e-10  1.20000000e+00  0.00000000e+00 -5.33227190e-02 -1.53195830e-03  1.19967153e+00 
 2.02110801e-10  1.20000000e+00  0.00000000e+00 -5.71537024e-02 -1.29997229e-03  1.19982477e+00 
 2.02994045e-10  1.20000000e+00  0.00000000e+00 -6.01240334e-02 -8.75002955e-04  1.19998532e+00 
 2.04099094e-10  1.20000000e+00  0.00000000e+00 -6.31544453e-02 -2.80806819e-04  1.20012119e+00 
 2.05202732e-10  1.20000000e+00  0.00000000e+00 -6.56171169e-02  2.79432192e-04  1.20019519e+00 
 2.06571553e-10  1.20000000e+00  0.00000000e+00 -6.79758449e-02  8.61368620e-04  1.20023284e+00 
 2.07976121e-10  1.20000000e+00  0.00000000e+00 -6.94663533e-02  1.31400153e-03  1.20023571e+00 
 2.09699915e-10  1.20000000e+00  0.00000000e+00 -6.95625178e-02  1.68849932e-03  1.20021654e+00 
 2.11456610e-10  1.20000000e+00  0.00000000e+00 -6.70972371e-02  1.90463320e-03  1.20018837e+00 
 2.13234095e-10  1.20000000e+00  0.00000000e+00 -6.13509318e-02  1.99950894e-03  1.20016164e+00 
 2.14616523e-10  1.20000000e+00  0.00000000e+00 -5.42927846e-02  2.01224531e-03  1.20014559e+00 
 2.15778174e-10  1.20000000e+00  0.00000000e+00 -4.64320307e-02  1.99471488e-03  1.20013606e+00 
 2.16944464e-10  1.20000000e+00  0.00000000e+00 -3.66324922e-02  1.96008795e-03  1.20012945e+00 
 2.18198205e-10  1.20000000e+00  0.00000000e+00 -2.38128469e-02  1.91340750e-03  1.20012409e+00 
 2.19388049e-10  1.20000000e+00  0.00000000e+00 -9.28341791e-03  1.86701410e-03  1.20011985e+00 
 2.20433099e-10  1.20000000e+00  0.00000000e+00  5.55227401e-03  1.82641667e-03  1.20011609e+00 
 2.21539007e-10  1.20000000e+00  0.00000000e+00  2.36147491e-02  1.78234732e-03  1.20011178e+00 
 2.22513510e-10  1.20000000e+00  0.00000000e+00  4.17945261e-02  1.74089377e-03  1.20010825e+00 
 2.23465541e-10  1.20000000e+00  0.00000000e+00  6.18599286e-02  1.69692097e-03  1.20010574e+00 
 2.24516848e-10  1.20000000e+00  0.00000000e+00  8.69164976e-02  1.64401458e-03  1.20010491e+00 
 2.25604054e-10  1.20000000e+00  0.00000000e+00  1.16167447e-01  1.58480174e-03  1.20010678e+00 
 2.26918637e-10  1.20000000e+00  0.00000000e+00  1.56017438e-01  1.50816935e-03  1.20011326e+00 
 2.28056063e-10  1.20000000e+00  0.00000000e+00  1.94247769e-01  1.43842709e-03  1.20012341e+00 
 2.29013218e-10  1.20000000e+00  0.00000000e+00  2.28867608e-01  1.37813432e-03  1.20013428e+00 
 2.29958702e-10  1.20000000e+00  0.00000000e+00  2.65010654e-01  1.31708254e-03  1.20014992e+00 
 2.30972532e-10  1.20000000e+00  0.00000000e+00  3.05646150e-01  1.24906186e-03  1.20017101e+00 
 2.32048658e-10  1.20000000e+00  0.00000000e+00  3.50619851e-01  1.17386566e-03  1.20018402e+00 
 2.33142990e-10  1.20000000e+00  0.00000000e+00  3.98008564e-01  1.09530619e-03  1.20017257e+00 
 2.34267601e-10  1.20000000e+00  0.00000000e+00  4.48160055e-01  1.01381171e-03  1.20012759e+00 
 2.35358753e-10  1.20000000e+00  0.00000000e+00  4.97979929e-01  9.34858023e-04  1.20005454e+00 
 2.36441380e-10  1.20000000e+00  0.00000000e+00  5.48322062e-01  8.57081798e-04  1.19996110e+00 
 2.37565116e-10  1.20000000e+00  0.00000000e+00  6.01324736e-01  7.77201864e-04  1.19984963e+00 
 2.38725727e-10  1.20000000e+00  0.00000000e+00  6.56649383e-01  6.95489414e-04  1.19972315e+00 
 2.39888105e-10  1.20000000e+00  0.00000000e+00  7.12422184e-01  6.13711913e-04  1.19958349e+00 
 2.40988120e-10  1.20000000e+00  0.00000000e+00  7.65306219e-01  5.35179178e-04  1.19943290e+00 
 2.41999628e-10  1.20000000e+00  0.00000000e+00  8.13788240e-01  4.61066312e-04  1.19927084e+00 
 2.42928566e-10  1.20000000e+00  0.00000000e+00  8.57936510e-01  3.91814516e-04  1.19909764e+00 
 2.43815491e-10  1.20000000e+00  0.00000000e+00  8.99446215e-01  3.26301084e-04  1.19891184e+00 
 2.44679967e-10  1.20000000e+00  0.00000000e+00  9.38899263e-01  2.63610692e-04  1.19871787e+00 
 2.45473919e-10  1.20000000e+00  0.00000000e+00  9.73787691e-01  2.05274980e-04  1.19853560e+00 
 2.46194226e-10  1.20000000e+00  0.00000000e+00  1.00384381e+00  1.50577159e-04  1.19837247e+00 
 2.46880318e-10  1.20000000e+00  0.00000000e+00  1.03057131e+00  9.83328861e-05  1.19822482e+00 
 2.47585492e-10  1.20000000e+00  0.00000000e+00  1.05559991e+00  4.71010463e-05  1.19808675e+00 
 2.48332807e-10  1.20000000e+00  0.00000000e+00  1.07896206e+00 -1.96962014e-06  1.19796039e+00 
 2.49142542e-10  1.20000000e+00  0.00000000e+00  1.10029268e+00 -4.67335119e-05  1.19784921e+00 
 2.50182661e-10  1.20000000e+00  0.00000000e+00  1.12170472e+00 -8.87620361e-05  1.19774510e+00 
 2.51067807e-10  1.20000000e+00  0.00000000e+00  1.13517781e+00 -1.09769659e-04  1.19768852e+00 
 2.51793435e-10  1.20000000e+00  0.00000000e+00  1.14356515e+00 -1.16663478e-04  1.19766157e+00 
 2.52550635e-10  1.20000000e+00  0.00000000e+00  1.15032677e+00 -1.14404334e-04  1.19764868e+00 
 2.53372785e-10  1.20000000e+00  0.00000000e+00  1.15592220e+00 -1.02077784e-04  1.19764935e+00 
 2.54209547e-10  1.20000000e+00  0.00000000e+00  1.16026080e+00 -8.05343869e-05  1.19766283e+00 
 2.55118741e-10  1.20000000e+00  0.00000000e+00  1.16389271e+00 -4.88575909e-05  1.19768766e+00 
 2.56113992e-10  1.20000000e+00  0.00000000e+00  1.16698864e+00 -6.95396487e-06  1.19772189e+00 
 2.57194703e-10  1.20000000e+00  0.00000000e+00  1.16966125e+00  4.38069870e-05  1.19776161e+00 
 2.58230078e-10  1.20000000e+00  0.00000000e+00  1.17177412e+00  9.45375131e-05  1.19779713e+00 
 2.59317715e-10  1.20000000e+00  0.00000000e+00  1.17367734e+00  1.47083329e-04  1.19782693e+00 
 2.60402155e-10  1.20000000e+00  0.00000000e+00  1.17534458e+00  1.96341434e-04  1.19784506e+00 
 2.61571585e-10  1.20000000e+00  0.00000000e+00  1.17695179e+00  2.44061323e-04  1.19784906e+00 
 2.62781077e-10  1.20000000e+00  0.00000000e+00  1.17845198e+00  2.86792599e-04  1.19784316e+00 
 2.63659732e-10  1.20000000e+00  0.00000000e+00  1.17945675e+00  3.14027490e-04  1.19785197e+00 
 2.64214233e-10  1.20000000e+00  0.00000000e+00  1.18005903e+00  3.29716109e-04  1.19787727e+00 
 2.64730719e-10  1.20000000e+00  0.00000000e+00  1.18059989e+00  3.43235471e-04  1.19792059e+00 
 2.65286589e-10  1.20000000e+00  0.00000000e+00  1.18116167e+00  3.56466921e-04  1.19799065e+00 
 2.65869874e-10  1.20000000e+00  0.00000000e+00  1.18172979e+00  3.68859251e-04  1.19809148e+00 
 2.66493166e-10  1.20000000e+00  0.00000000e+00  1.18231403e+00  3.80322955e-04  1.19822879e+00 
 2.67090147e-10  1.20000000e+00  0.00000000e+00  1.18285264e+00  3.89350736e-04  1.19838484e+00 
 2.67716023e-10  1.20000000e+00  0.00000000e+00  1.18339645e+00  3.96648563e-04  1.19856904e+00 
 2.68338902e-10  1.20000000e+00  0.00000000e+00  1.18391749e+00  4.01629132e-04  1.19876774e+00 
 2.69003010e-10  1.20000000e+00  0.00000000e+00  1.18445192e+00  4.04384580e-04  1.19899002e+00 
 2.69684774e-10  1.20000000e+00  0.00000000e+00  1.18497901e+00  4.04483508e-04  1.19922293e+00 
 2.70420185e-10  1.20000000e+00  0.00000000e+00  1.18552432e+00  4.01598044e-04  1.19947275e+00 
 2.71183261e-10  1.20000000e+00  0.00000000e+00  1.18606596e+00  3.95543071e-04  1.19972432e+00 
 2.72021418e-10  1.20000000e+00  0.00000000e+00  1.18663413e+00  3.85696234e-04  1.19998595e+00 
 2.72933696e-10  1.20000000e+00  0.00000000e+00  1.18722261e+00  3.71778185e-04  1.20024861e+00 
 2.74007303e-10  1.20000000e+00  0.00000000e+00  1.18787795e+00  3.52120349e-04  1.20052457e+00 
 2.74926224e-10  1.20000000e+00  0.00000000e+00  1.18840902e+00  3.33280054e-04  1.20073109e+00 
 2.75772120e-10  1.20000000e+00  0.00000000e+00  1.18887525e+00  3.14941633e-04  1.20089701e+00 
 2.76612182e-10  1.20000000e+00  0.00000000e+00  1.18931813e+00  2.96289912e-04  1.20103913e+00 
 2.77456208e-10  1.20000000e+00  0.00000000e+00  1.18974406e+00  2.77523431e-04  1.20116066e+00 
 2.78357629e-10  1.20000000e+00  0.00000000e+00  1.19017906e+00  2.57825121e-04  1.20126790e+00 
 2.79196742e-10  1.20000000e+00  0.00000000e+00  1.19056657e+00  2.40061944e-04  1.20134598e+00 
 2.80056739e-10  1.20000000e+00  0.00000000e+00  1.19094723e+00  2.22631394e-04  1.20140421e+00 
 2.80873148e-10  1.20000000e+00  0.00000000e+00  1.19129394e+00  2.06925865e-04  1.20143880e+00 
 2.81705194e-10  1.20000000e+00  0.00000000e+00  1.19163331e+00  1.91819771e-04  1.20145243e+00 
 2.82551442e-10  1.20000000e+00  0.00000000e+00  1.19196465e+00  1.77392720e-04  1.20144086e+00 
 2.83450509e-10  1.20000000e+00  0.00000000e+00  1.19230210e+00  1.63053772e-04  1.20138065e+00 
 2.83868417e-10  1.20000000e+00  0.00000000e+00  1.19245402e+00  1.56745151e-04  1.20130063e+00 
 2.84183789e-10  1.20000000e+00  0.00000000e+00  1.19256661e+00  1.51996005e-04  1.20119972e+00 
 2.84523570e-10  1.20000000e+00  0.00000000e+00  1.19268584e+00  1.46599582e-04  1.20105592e+00 
 2.84937859e-10  1.20000000e+00  0.00000000e+00  1.19282812e+00  1.39102262e-04  1.20088783e+00 
 2.85398399e-10  1.20000000e+00  0.00000000e+00  1.19298212e+00  1.29071667e-04  1.20084364e+00 
 2.85836631e-10  1.20000000e+00  0.00000000e+00  1.19312457e+00  1.17750853e-04  1.20107056e+00 
 2.86304548e-10  1.20000000e+00  0.00000000e+00  1.19327243e+00  1.04080544e-04  1.20168257e+00 
 2.86766567e-10  1.20000000e+00  0.00000000e+00  1.19341451e+00  8.97720823e-05  1.20267087e+00 
 2.87296366e-10  1.20000000e+00  0.00000000e+00  1.19357336e+00  7.38569748e-05  1.20421557e+00 
 2.87871749e-10  1.20000000e+00  0.00000000e+00  1.19374194e+00  5.90563422e-05  1.20627238e+00 
 2.88573933e-10  1.20000000e+00  0.00000000e+00  1.19394351e+00  4.69403385e-05  1.20910170e+00 
 2.89214052e-10  1.20000000e+00  0.00000000e+00  1.19412420e+00  4.28756600e-05  1.21180586e+00 
 2.89823870e-10  1.20000000e+00  0.00000000e+00  1.19429406e+00  4.53192465e-05  1.21436359e+00 
 2.90483396e-10  1.20000000e+00  0.00000000e+00  1.19447515e+00  5.38406575e-05  1.21702776e+00 
 2.91094938e-10  1.20000000e+00  0.00000000e+00  1.19464028e+00  6.57303524e-05  1.21936631e+00 
 2.91753358e-10  1.20000000e+00  0.00000000e+00  1.19481447e+00  8.08528146e-05  1.22172968e+00 
 2.92408012e-10  1.20000000e+00  0.00000000e+00  1.19498330e+00  9.63795277e-05  1.22392742e+00 
 2.93141842e-10  1.20000000e+00  0.00000000e+00  1.19516665e+00  1.12358233e-04  1.22623135e+00 
 2.93907604e-10  1.20000000e+00  0.00000000e+00  1.19535072e+00  1.25833797e-04  1.22848482e+00 
 2.94789258e-10  1.20000000e+00  0.00000000e+00  1.19555305e+00  1.36132783e-04  1.23093099e+00 
 2.95756601e-10  1.20000000e+00  0.00000000e+00  1.19576317e+00  1.40773400e-04  1.23348308e+00 
 2.96923918e-10  1.20000000e+00  0.00000000e+00  1.19600086e+00  1.38270405e-04  1.23645173e+00 
 2.98121240e-10  1.20000000e+00  0.00000000e+00  1.19622794e+00  1.28848702e-04  1.23944577e+00 
 2.99397808e-10  1.20000000e+00  0.00000000e+00  1.19645338e+00  1.14216335e-04  1.24260148e+00 
 3.00706282e-10  1.20000000e+00  0.00000000e+00  1.19666849e+00  9.73960359e-05  1.24600638e+00 
 3.01991251e-10  1.20000000e+00  0.00000000e+00  1.19686562e+00  8.10488668e-05  1.24962891e+00 
 3.03382651e-10  1.20000000e+00  0.00000000e+00  1.19706516e+00  6.47793620e-05  1.25383376e+00 
 3.05068106e-10  1.20000000e+00  0.00000000e+00  1.19728954e+00  4.82024400e-05  1.25947020e+00 
 3.06424512e-10  1.20000000e+00  0.00000000e+00  1.19745744e+00  3.73898636e-05  1.26426579e+00 
 3.07928877e-10  1.20000000e+00  0.00000000e+00  1.19763167e+00  2.79605189e-05  1.26918190e+00 
 3.09325077e-10  1.20000000e+00  0.00000000e+00  1.19778299e+00  2.15608145e-05  1.27274816e+00 
 3.10766195e-10  1.20000000e+00  0.00000000e+00  1.19792947e+00  1.70021147e-05  1.27489001e+00 
 3.12290556e-10  1.20000000e+00  0.00000000e+00  1.19807435e+00  1.38921310e-05  1.27497688e+00 
 3.13886524e-10  1.20000000e+00  0.00000000e+00  1.19821558e+00  1.18844057e-05  1.27207448e+00 
 3.15578145e-10  1.20000000e+00  0.00000000e+00  1.19835428e+00  1.05142396e-05  1.26466007e+00 
 3.16978157e-10  1.20000000e+00  0.00000000e+00  1.19846099e+00  9.60379755e-06  1.25404537e+00 
 3.17992938e-10  1.20000000e+00  0.00000000e+00  1.19853399e+00  8.95875985e-06  1.24302131e+00 
 3.18889639e-10  1.20000000e+00  0.00000000e+00  1.19859562e+00  8.41715218e-06  1.23036228e+00 
 3.19734020e-10  1.20000000e+00  0.00000000e+00  1.19865134e+00  8.02516603e-06  1.21553893e+00 
 3.20723131e-10  1.20000000e+00  0.00000000e+00  1.19871389e+00  7.73740029e-06  1.19423577e+00 
 3.21649532e-10  1.20000000e+00  0.00000000e+00  1.19876987e+00  7.48882858e-06  1.17022238e+00 
