 time            v(A)            v(B)            v(A_GT_B)       v(A_LT_B)       v(A_EQ_B)      
 0.00000000e+00  0.00000000e+00  0.00000000e+00  5.12368022e-09  5.12368010e-09  1.20000000e+00 
 1.00000000e-13  0.00000000e+00  0.00000000e+00  5.12368015e-09  5.12367704e-09  1.20000000e+00 
 2.00000000e-13  0.00000000e+00  0.00000000e+00  5.12368059e-09  5.12367393e-09  1.20000000e+00 
 4.00000000e-13  0.00000000e+00  0.00000000e+00  5.12368081e-09  5.12366816e-09  1.20000000e+00 
 8.00000000e-13  0.00000000e+00  0.00000000e+00  5.12368081e-09  5.12365994e-09  1.20000000e+00 
 1.60000000e-12  0.00000000e+00  0.00000000e+00  5.12368059e-09  5.12365328e-09  1.20000000e+00 
 3.20000000e-12  0.00000000e+00  0.00000000e+00  5.12367992e-09  5.12365095e-09  1.20000000e+00 
 6.40000000e-12  0.00000000e+00  0.00000000e+00  5.12367992e-09  5.12365950e-09  1.20000000e+00 
 1.28000000e-11  0.00000000e+00  0.00000000e+00  5.12368015e-09  5.12367382e-09  1.20000000e+00 
 2.28000000e-11  0.00000000e+00  0.00000000e+00  5.12368009e-09  5.12367937e-09  1.20000000e+00 
 3.28000000e-11  0.00000000e+00  0.00000000e+00  5.12368031e-09  5.12368026e-09  1.20000000e+00 
 4.28000000e-11  0.00000000e+00  0.00000000e+00  5.12368048e-09  5.12368042e-09  1.20000000e+00 
 5.28000000e-11  0.00000000e+00  0.00000000e+00  5.12368009e-09  5.12368042e-09  1.20000000e+00 
 6.28000000e-11  0.00000000e+00  0.00000000e+00  5.12368042e-09  5.12368026e-09  1.20000000e+00 
 7.28000000e-11  0.00000000e+00  0.00000000e+00  5.12368026e-09  5.12367998e-09  1.20000000e+00 
 8.28000000e-11  0.00000000e+00  0.00000000e+00  5.12368009e-09  5.12368020e-09  1.20000000e+00 
 9.28000000e-11  0.00000000e+00  0.00000000e+00  5.12368048e-09  5.12368026e-09  1.20000000e+00 
 1.00000000e-10  0.00000000e+00  0.00000000e+00  5.12368048e-09  5.12368037e-09  1.20000000e+00 
 1.01000000e-10  1.20000000e-02  0.00000000e+00  2.60595077e-03  5.11232676e-04  1.20021943e+00 
 1.03000000e-10  3.60000000e-02  0.00000000e+00  4.83007892e-03  7.64090590e-04  1.20012863e+00 
 1.07000000e-10  8.40000000e-02  0.00000000e+00  2.99769273e-03  2.64684578e-05  1.19978001e+00 
 1.15000000e-10  1.80000000e-01  0.00000000e+00  9.07431333e-04 -2.41925661e-04  1.20005932e+00 
 1.25000000e-10  3.00000000e-01  0.00000000e+00  9.04406567e-04 -1.60235782e-05  1.19997566e+00 
 1.35000000e-10  4.20000000e-01  0.00000000e+00  1.02929102e-03  4.84295621e-06  1.20003096e+00 
 1.45000000e-10  5.40000000e-01  0.00000000e+00  3.44965779e-04 -1.44005348e-04  1.19997994e+00 
 1.55000000e-10  6.60000000e-01  0.00000000e+00 -2.29341802e-03 -4.98650398e-04  1.20001208e+00 
 1.65000000e-10  7.80000000e-01  0.00000000e+00 -7.29911252e-03 -9.77449871e-04  1.19998314e+00 
 1.75000000e-10  9.00000000e-01  0.00000000e+00 -1.57020115e-02 -1.40953869e-03  1.20000099e+00 
 1.85000000e-10  1.02000000e+00  0.00000000e+00 -2.60083845e-02 -1.50223104e-03  1.19999951e+00 
 1.95000000e-10  1.14000000e+00  0.00000000e+00 -3.86255432e-02 -1.43800264e-03  1.20000479e+00 
 2.00000000e-10  1.20000000e+00  0.00000000e+00 -4.66227540e-02 -1.07853305e-03  1.20001590e+00 
 2.01000000e-10  1.20000000e+00  0.00000000e+00 -5.18238542e-02 -1.34845442e-03  1.19978782e+00 
 2.03000000e-10  1.20000000e+00  0.00000000e+00 -6.01194886e-02 -1.01293241e-03  1.19987271e+00 
 2.07000000e-10  1.20000000e+00  0.00000000e+00 -6.86400078e-02  9.84380862e-04  1.20033303e+00 
 2.15000000e-10  1.20000000e+00  0.00000000e+00 -4.96934679e-02  2.26086014e-03  1.20011449e+00 
 2.25000000e-10  1.20000000e+00  0.00000000e+00  1.10806122e-01  1.57788315e-03  1.20011444e+00 
 2.35000000e-10  1.20000000e+00  0.00000000e+00  4.75184137e-01  1.04850260e-03  1.20010973e+00 
 2.45000000e-10  1.20000000e+00  0.00000000e+00  9.42282997e-01  2.46620688e-04  1.19893172e+00 
 2.55000000e-10  1.20000000e+00  0.00000000e+00  1.17103057e+00 -1.81739462e-04  1.19738253e+00 
 2.65000000e-10  1.20000000e+00  0.00000000e+00  1.17831488e+00  2.24111497e-04  1.19780011e+00 
 2.72576494e-10  1.20000000e+00  0.00000000e+00  1.18825323e+00  5.48510996e-04  1.19979044e+00 
 2.81773747e-10  1.20000000e+00  0.00000000e+00  1.19094140e+00  1.65332962e-04  1.20194095e+00 
 2.90801526e-10  1.20000000e+00  0.00000000e+00  1.19507025e+00  7.06436366e-05  1.21330113e+00 
 3.00029233e-10  1.20000000e+00  0.00000000e+00  1.19624266e+00  6.10014014e-05  1.24366596e+00 
 3.10029233e-10  1.20000000e+00  0.00000000e+00  1.19816100e+00  1.06970091e-04  1.27217039e+00 
 3.20029233e-10  1.20000000e+00  0.00000000e+00  1.19851227e+00 -7.47980477e-05  1.20949757e+00 
 3.30029233e-10  1.20000000e+00  0.00000000e+00  1.19933321e+00  4.24316357e-05  8.61938066e-01 
 3.40029233e-10  1.20000000e+00  0.00000000e+00  1.19943340e+00  7.96655796e-06  3.24694694e-01 
 3.50029233e-10  1.20000000e+00  0.00000000e+00  1.19976536e+00 -4.75927332e-06  4.74110025e-02 
 3.60029233e-10  1.20000000e+00  0.00000000e+00  1.19977002e+00  1.51255560e-06  1.86096891e-02 
 3.70029233e-10  1.20000000e+00  0.00000000e+00  1.19992249e+00 -1.44637683e-06  4.56750819e-03 
 3.80029233e-10  1.20000000e+00  0.00000000e+00  1.19991371e+00  1.58226396e-05  3.60501268e-03 
 3.90029233e-10  1.20000000e+00  0.00000000e+00  1.19996963e+00 -2.00870552e-05  6.15355790e-04 
 4.00029233e-10  1.20000000e+00  0.00000000e+00  1.19996662e+00  1.79317962e-05  8.42694425e-04 
 4.10029233e-10  1.20000000e+00  0.00000000e+00  1.19998934e+00 -1.52771402e-05  6.66323556e-05 
 4.20029233e-10  1.20000000e+00  0.00000000e+00  1.19998699e+00  1.26017368e-05  1.98433531e-04 
 4.30029233e-10  1.20000000e+00  0.00000000e+00  1.19999646e+00 -9.96931037e-06  5.19789967e-06 
 4.40029233e-10  1.20000000e+00  0.00000000e+00  1.19999482e+00  7.97614888e-06  4.08260653e-05 
 4.50029233e-10  1.20000000e+00  0.00000000e+00  1.19999892e+00 -6.20607213e-06  5.63022679e-06 
 4.60029233e-10  1.20000000e+00  0.00000000e+00  1.19999788e+00  4.89711181e-06  2.19330069e-06 
 4.70029233e-10  1.20000000e+00  0.00000000e+00  1.19999972e+00 -3.80305874e-06  7.79726037e-06 
 4.80029233e-10  1.20000000e+00  0.00000000e+00  1.19999912e+00  2.99223864e-06 -5.83070031e-06 
 4.90029233e-10  1.20000000e+00  0.00000000e+00  1.19999995e+00 -2.32946284e-06  7.26578698e-06 
 5.00029233e-10  1.20000000e+00  0.00000000e+00  1.19999962e+00  1.83951628e-06 -6.10502789e-06 
 5.10029233e-10  1.20000000e+00  0.00000000e+00  1.20000001e+00 -1.43664417e-06  5.67571695e-06 
 5.20029233e-10  1.20000000e+00  0.00000000e+00  1.19999984e+00  1.14288672e-06 -4.75137157e-06 
 5.30029233e-10  1.20000000e+00  0.00000000e+00  1.20000001e+00 -8.94362840e-07  4.07708303e-06 
 5.40029233e-10  1.20000000e+00  0.00000000e+00  1.19999994e+00  7.18503725e-07 -3.36755156e-06 
 5.50029233e-10  1.20000000e+00  0.00000000e+00  1.20000000e+00 -5.61878200e-07  2.80706841e-06 
 5.60029233e-10  1.20000000e+00  0.00000000e+00  1.19999998e+00  4.56923394e-07 -2.29374037e-06 
 5.70029233e-10  1.20000000e+00  0.00000000e+00  1.19999999e+00 -3.55596736e-07  1.89039399e-06 
 5.80029233e-10  1.20000000e+00  0.00000000e+00  1.19999999e+00  2.93694765e-07 -1.53252720e-06 
 5.90029233e-10  1.20000000e+00  0.00000000e+00  1.19999999e+00 -2.26108098e-07  1.25845517e-06 
 6.00029233e-10  1.20000000e+00  0.00000000e+00  1.20000000e+00  1.90688870e-07 -1.01355577e-06 
 6.10029233e-10  1.20000000e+00  0.00000000e+00  1.19999999e+00 -1.43983825e-07  8.32936287e-07 
 6.20029233e-10  1.20000000e+00  0.00000000e+00  1.20000000e+00  1.25071104e-07 -6.66347537e-07 
 6.30029233e-10  1.20000000e+00  0.00000000e+00  1.19999999e+00 -9.14586106e-08  5.49953788e-07 
 6.40029233e-10  1.20000000e+00  0.00000000e+00  1.20000000e+00  8.29563618e-08 -4.36285686e-07 
 6.50029233e-10  1.20000000e+00  0.00000000e+00  1.19999999e+00 -5.76431542e-08  3.63016673e-07 
 6.60029233e-10  1.20000000e+00  0.00000000e+00  1.20000000e+00  5.57710564e-08 -2.84620392e-07 
 6.70029233e-10  1.20000000e+00  0.00000000e+00  1.19999999e+00 -3.57649312e-08  2.39973889e-07 
 6.80029233e-10  1.20000000e+00  0.00000000e+00  1.20000000e+00  3.81478899e-08 -1.84910554e-07 
 6.90029233e-10  1.20000000e+00  0.00000000e+00  1.19999999e+00 -2.15583126e-08  1.59146511e-07 
 7.00029233e-10  1.20000000e+00  0.00000000e+00  1.20000000e+00  2.66879611e-08 -1.19455678e-07 
 7.10029233e-10  1.20000000e+00  0.00000000e+00  1.19999999e+00 -1.23089069e-08  1.06107855e-07 
 7.20029233e-10  1.20000000e+00  0.00000000e+00  1.20000000e+00  1.92191959e-08 -7.65228869e-08 
 7.30029233e-10  1.20000000e+00  0.00000000e+00  1.20000000e+00 -6.27560626e-09  7.13244820e-08 
 7.40029233e-10  1.20000000e+00  0.00000000e+00  1.20000000e+00  1.43438556e-08 -4.83756076e-08 
 7.50029233e-10  1.20000000e+00  0.00000000e+00  1.20000000e+00 -2.33488401e-09  4.85203364e-08 
 7.60029233e-10  1.20000000e+00  0.00000000e+00  1.20000000e+00  1.11578385e-08 -2.99267884e-08 
 7.70029233e-10  1.20000000e+00  0.00000000e+00  1.20000000e+00  2.41469289e-10  3.35722767e-08 
 7.80029233e-10  1.20000000e+00  0.00000000e+00  1.20000000e+00  9.07414438e-09 -1.78366676e-08 
 7.90029233e-10  1.20000000e+00  0.00000000e+00  1.20000000e+00  1.92694405e-09  2.37746093e-08 
 8.00029233e-10  1.20000000e+00  0.00000000e+00  1.20000000e+00  7.71062830e-09 -9.91447535e-09 
 8.10029233e-10  1.20000000e+00  0.00000000e+00  1.20000000e+00  3.03010872e-09  1.73528991e-08 
 8.20029233e-10  1.20000000e+00  0.00000000e+00  1.20000000e+00  6.81803103e-09 -4.72381018e-09 
 8.30029233e-10  1.20000000e+00  0.00000000e+00  1.20000000e+00  3.75237924e-09  1.31438431e-08 
 8.40029233e-10  1.20000000e+00  0.00000000e+00  1.20000000e+00  6.23355206e-09 -1.32313199e-09 
 8.50029233e-10  1.20000000e+00  0.00000000e+00  1.20000000e+00  4.22537649e-09  1.03849319e-08 
 8.60029233e-10  1.20000000e+00  0.00000000e+00  1.20000000e+00  5.85075727e-09  9.04634090e-10 
 8.70029233e-10  1.20000000e+00  0.00000000e+00  1.20000000e+00  4.53518084e-09  8.57641597e-09 
 8.80029233e-10  1.20000000e+00  0.00000000e+00  1.20000000e+00  5.60001873e-09  2.36387493e-09 
 8.90029233e-10  1.20000000e+00  0.00000000e+00  1.20000000e+00  4.73811979e-09  7.39077538e-09 
 9.00029233e-10  1.20000000e+00  0.00000000e+00  1.20000000e+00  5.43576323e-09  3.31958039e-09 
 9.10029233e-10  1.20000000e+00  0.00000000e+00  1.20000000e+00  4.87106744e-09  6.61336980e-09 
 9.20029233e-10  1.20000000e+00  0.00000000e+00  1.20000000e+00  5.32815475e-09  3.94539046e-09 
 9.30029233e-10  1.20000000e+00  0.00000000e+00  1.20000000e+00  4.95816749e-09  6.10353423e-09 
 9.40029233e-10  1.20000000e+00  0.00000000e+00  1.20000000e+00  5.25765370e-09  4.35507985e-09 
 9.50029233e-10  1.20000000e+00  0.00000000e+00  1.20000000e+00  5.01523356e-09  5.76908338e-09 
 9.60029233e-10  1.20000000e+00  0.00000000e+00  1.20000000e+00  5.21146210e-09  4.62319633e-09 
 9.70029233e-10  1.20000000e+00  0.00000000e+00  1.20000000e+00  5.05262299e-09  5.54960272e-09 
 9.80029233e-10  1.20000000e+00  0.00000000e+00  1.20000000e+00  5.18119747e-09  4.79858464e-09 
 9.90029233e-10  1.20000000e+00  0.00000000e+00  1.20000000e+00  5.07712100e-09  5.40549761e-09 
 1.00002923e-09  1.20000000e+00  0.00000000e+00  1.20000000e+00  5.16136728e-09  4.91324431e-09 
 1.01002923e-09  1.20000000e+00  0.00000000e+00  1.20000000e+00  5.09317216e-09  5.31081668e-09 
 1.02002923e-09  1.20000000e+00  0.00000000e+00  1.20000000e+00  5.14837445e-09  4.98814046e-09 
 1.03002923e-09  1.20000000e+00  0.00000000e+00  1.20000000e+00  5.10368992e-09  5.24855104e-09 
 1.04002923e-09  1.20000000e+00  0.00000000e+00  1.20000000e+00  5.13986104e-09  5.03700698e-09 
 1.05002923e-09  1.20000000e+00  0.00000000e+00  1.20000000e+00  5.11058124e-09  5.20755089e-09 
 1.06002923e-09  1.20000000e+00  0.00000000e+00  1.20000000e+00  5.13428283e-09  5.06883968e-09 
 1.07002923e-09  1.20000000e+00  0.00000000e+00  1.20000000e+00  5.11509685e-09  5.18050630e-09 
 1.08002923e-09  1.20000000e+00  0.00000000e+00  1.20000000e+00  5.13062709e-09  5.08953080e-09 
 1.09002923e-09  1.20000000e+00  0.00000000e+00  1.20000000e+00  5.11805559e-09  5.16262594e-09 
 1.10000000e-09  1.20000000e+00  0.00000000e+00  1.20000000e+00  5.12822951e-09  5.10287579e-09 
 1.10100000e-09  1.20000000e+00  1.20000000e-02  1.20030428e+00  1.59769479e-03  2.58101511e-04 
 1.10300000e-09  1.20000000e+00  3.60000000e-02  1.20047662e+00  2.47919180e-03  3.24842226e-04 
 1.10700000e-09  1.20000000e+00  8.40000000e-02  1.20014255e+00  7.10322104e-04 -1.47150318e-04 
 1.11500000e-09  1.20000000e+00  1.80000000e-01  1.19997719e+00  6.15352112e-05 -1.29586764e-04 
 1.12500000e-09  1.20000000e+00  3.00000000e-01  1.19996534e+00  1.17232912e-04  4.33278074e-05 
 1.13500000e-09  1.20000000e+00  4.20000000e-01  1.19998931e+00  1.43743570e-04  1.49879857e-05 
 1.14500000e-09  1.20000000e+00  5.40000000e-01  1.19988358e+00  1.16434716e-04  2.41679729e-05 
 1.15500000e-09  1.20000000e+00  6.60000000e-01  1.19959047e+00  6.78441302e-05  2.59325953e-05 
 1.16500000e-09  1.20000000e+00  7.80000000e-01  1.19911243e+00  1.18227455e-04 -8.60726865e-05 
 1.17500000e-09  1.20000000e+00  9.00000000e-01  1.19855321e+00  5.77748709e-04 -8.62964287e-04 
 1.18500000e-09  1.20000000e+00  1.02000000e+00  1.19807449e+00  1.43666334e-04 -3.29917871e-04 
 1.19500000e-09  1.20000000e+00  1.14000000e+00  1.19761353e+00 -2.74013532e-04  2.82727696e-04 
 1.20000000e-09  1.20000000e+00  1.20000000e+00  1.19757735e+00 -2.17679657e-05 -4.68025805e-05 
 1.20100000e-09  1.20000000e+00  1.20000000e+00  1.19742751e+00 -1.78950525e-03 -3.49756867e-04 
 1.20300000e-09  1.20000000e+00  1.20000000e+00  1.19786676e+00 -3.16583321e-03 -5.85909810e-04 
 1.20700000e-09  1.20000000e+00  1.20000000e+00  1.20109175e+00 -1.66504080e-03 -1.92604329e-04 
 1.21500000e-09  1.20000000e+00  1.20000000e+00  1.21139280e+00 -2.47579821e-04  1.48625819e-03 
 1.22500000e-09  1.20000000e+00  1.20000000e+00  1.23155359e+00 -9.46954933e-05  5.43384173e-03 
 1.23500000e-09  1.20000000e+00  1.20000000e+00  1.26734239e+00  2.33588675e-05  9.09111740e-03 
 1.24500000e-09  1.20000000e+00  1.20000000e+00  1.27192958e+00 -1.11764994e-05  9.33426801e-03 
 1.25500000e-09  1.20000000e+00  1.20000000e+00  9.27382129e-01 -1.27283885e-05 -1.99863859e-03 
 1.26500000e-09  1.20000000e+00  1.20000000e+00  2.91376726e-01  2.05682269e-05 -3.61550083e-02 
 1.27500000e-09  1.20000000e+00  1.20000000e+00  1.07903342e-02  1.58656536e-05 -8.09864983e-02 
 1.28466734e-09  1.20000000e+00  1.20000000e+00  1.34464981e-02 -2.83617561e-05 -1.11336181e-01 
 1.29466734e-09  1.20000000e+00  1.20000000e+00 -4.84719418e-03  9.98949004e-06  7.99990822e-02 
 1.30466734e-09  1.20000000e+00  1.20000000e+00  3.19388440e-03 -8.20096446e-06  6.63516565e-01 
 1.31466734e-09  1.20000000e+00  1.20000000e+00 -1.56327780e-03 -9.55348949e-06  1.13601020e+00 
 1.32466734e-09  1.20000000e+00  1.20000000e+00  9.99982545e-04  1.65285349e-05  1.18788524e+00 
 1.33466734e-09  1.20000000e+00  1.20000000e+00 -4.85169170e-04 -1.15252214e-05  1.19027734e+00 
 1.34466734e-09  1.20000000e+00  1.20000000e+00  3.13024879e-04 -3.62258617e-06  1.20032142e+00 
 1.35466734e-09  1.20000000e+00  1.20000000e+00 -1.40602131e-04  6.75966793e-06  1.19761411e+00 
 1.36466734e-09  1.20000000e+00  1.20000000e+00  1.00513547e-04 -6.18791950e-06  1.20103686e+00 
 1.37466734e-09  1.20000000e+00  1.20000000e+00 -3.80036456e-05  5.30934463e-06  1.19898958e+00 
 1.38466734e-09  1.20000000e+00  1.20000000e+00  3.43306018e-05 -4.00433250e-06  1.20067542e+00 
 1.39466734e-09  1.20000000e+00  1.20000000e+00 -8.24719850e-06  2.46900642e-06  1.19946265e+00 
 1.40466734e-09  1.20000000e+00  1.20000000e+00  1.35263109e-05 -1.46720409e-06  1.20039712e+00 
 1.41466734e-09  1.20000000e+00  1.20000000e+00 -2.19769224e-07  5.76086309e-07  1.19969370e+00 
 1.42466734e-09  1.20000000e+00  1.20000000e+00  6.66054208e-06 -5.03820999e-08  1.20023277e+00 
 1.43466734e-09  1.20000000e+00  1.20000000e+00  1.56843792e-06 -3.05410034e-07  1.19982067e+00 
 1.44466734e-09  1.20000000e+00  1.20000000e+00  3.98739808e-06  4.93209602e-07  1.20013781e+00 
 1.45466734e-09  1.20000000e+00  1.20000000e+00  1.78039171e-06 -5.68030314e-07  1.19989341e+00 
 1.46466734e-09  1.20000000e+00  1.20000000e+00  2.77856180e-06  5.87069049e-07  1.20008244e+00 
 1.47466734e-09  1.20000000e+00  1.20000000e+00  1.60363455e-06 -5.46688975e-07  1.19993599e+00 
 1.48466734e-09  1.20000000e+00  1.20000000e+00  2.10092777e-06  5.04667080e-07  1.20004972e+00 
 1.49466734e-09  1.20000000e+00  1.20000000e+00  1.38090050e-06 -4.32236333e-07  1.19996128e+00 
 1.50466734e-09  1.20000000e+00  1.20000000e+00  1.65812833e-06  3.80583792e-07  1.20003017e+00 
 1.51466734e-09  1.20000000e+00  1.20000000e+00  1.18539057e-06 -3.10271341e-07  1.19997645e+00 
 1.52466734e-09  1.20000000e+00  1.20000000e+00  1.34348235e-06  2.68060870e-07  1.20001839e+00 
 1.53466734e-09  1.20000000e+00  1.20000000e+00  1.02414234e-06 -2.10294816e-07  1.19998562e+00 
 1.54466734e-09  1.20000000e+00  1.20000000e+00  1.11017519e-06  1.81650254e-07  1.20001124e+00 
 1.55466734e-09  1.20000000e+00  1.20000000e+00  8.91475321e-07 -1.37098828e-07  1.19999119e+00 
 1.56466734e-09  1.20000000e+00  1.20000000e+00  9.32772364e-07  1.20521432e-07  1.20000689e+00 
 1.57466734e-09  1.20000000e+00  1.20000000e+00  7.87190488e-07 -8.67508318e-08  1.19999460e+00 
 1.58466734e-09  1.20000000e+00  1.20000000e+00  7.92218008e-07  7.93439144e-08  1.20000423e+00 
 1.59466734e-09  1.20000000e+00  1.20000000e+00  6.89149335e-07 -5.32941415e-08  1.19999668e+00 
 1.60466734e-09  1.20000000e+00  1.20000000e+00  6.86293406e-07  5.22588917e-08  1.20000260e+00 
 1.61466734e-09  1.20000000e+00  1.20000000e+00  6.09694643e-07 -3.16043435e-08  1.19999795e+00 
 1.62466734e-09  1.20000000e+00  1.20000000e+00  6.00050065e-07  3.48619830e-08  1.20000160e+00 
 1.63466734e-09  1.20000000e+00  1.20000000e+00  5.42975093e-07 -1.77774970e-08  1.19999874e+00 
 1.64466734e-09  1.20000000e+00  1.20000000e+00  5.29387283e-07  2.38221297e-08  1.20000098e+00 
 1.65466734e-09  1.20000000e+00  1.20000000e+00  4.86172880e-07 -9.05656516e-09  1.19999922e+00 
 1.66466734e-09  1.20000000e+00  1.20000000e+00  4.70879528e-07  1.68716148e-08  1.20000061e+00 
 1.67466734e-09  1.20000000e+00  1.20000000e+00  4.37439136e-07 -3.59588181e-09  1.19999952e+00 
 1.68466734e-09  1.20000000e+00  1.20000000e+00  4.21879987e-07  1.25180193e-08  1.20000037e+00 
 1.69466734e-09  1.20000000e+00  1.20000000e+00  3.95392670e-07 -1.94626648e-10  1.19999970e+00 
 1.70466734e-09  1.20000000e+00  1.20000000e+00  3.80393501e-07  9.79950687e-09  1.20000023e+00 
 1.71466734e-09  1.20000000e+00  1.20000000e+00  3.58937267e-07  1.91516719e-09  1.19999982e+00 
 1.72466734e-09  1.20000000e+00  1.20000000e+00  3.44918406e-07  8.10458251e-09  1.20000014e+00 
 1.73466734e-09  1.20000000e+00  1.20000000e+00  3.27180915e-07  3.21917787e-09  1.19999988e+00 
 1.74466734e-09  1.20000000e+00  1.20000000e+00  3.14314987e-07  7.04800612e-09  1.20000009e+00 
 1.75466734e-09  1.20000000e+00  1.20000000e+00  2.99390466e-07  4.02224998e-09  1.19999993e+00 
 1.76466734e-09  1.20000000e+00  1.20000000e+00  2.87707495e-07  6.38856579e-09  1.20000005e+00 
 1.77466734e-09  1.20000000e+00  1.20000000e+00  2.74960623e-07  4.51473825e-09  1.19999995e+00 
 1.78466734e-09  1.20000000e+00  1.20000000e+00  2.64413837e-07  5.97585409e-09  1.20000003e+00 
 1.79466734e-09  1.20000000e+00  1.20000000e+00  2.53390203e-07  4.81508106e-09  1.19999997e+00 
 1.80466734e-09  1.20000000e+00  1.20000000e+00  2.43895581e-07  5.71634368e-09  1.20000002e+00 
 1.81466734e-09  1.20000000e+00  1.20000000e+00  2.34263114e-07  4.99678510e-09  1.19999998e+00 
 1.82466734e-09  1.20000000e+00  1.20000000e+00  2.25722299e-07  5.55198171e-09  1.20000001e+00 
 1.83466734e-09  1.20000000e+00  1.20000000e+00  2.17232882e-07  5.10538684e-09  1.19999999e+00 
 1.84466734e-09  1.20000000e+00  1.20000000e+00  2.09545894e-07  5.44677309e-09  1.20000000e+00 
 1.85466734e-09  1.20000000e+00  1.20000000e+00  2.02010035e-07  5.16905740e-09  1.19999999e+00 
