 time            v(g_pulse)      v(n1)          
 0.00000000e+00  0.00000000e+00  6.21618012e-01 
 1.00000000e-13  0.00000000e+00  6.21618012e-01 
 2.00000000e-13  0.00000000e+00  6.21618012e-01 
 4.00000000e-13  0.00000000e+00  6.21618012e-01 
 8.00000000e-13  0.00000000e+00  6.21618012e-01 
 1.60000000e-12  0.00000000e+00  6.21618012e-01 
 3.20000000e-12  0.00000000e+00  6.21618012e-01 
 6.40000000e-12  0.00000000e+00  6.21618012e-01 
 1.28000000e-11  0.00000000e+00  6.21618012e-01 
 2.28000000e-11  0.00000000e+00  6.21618011e-01 
 3.28000000e-11  0.00000000e+00  6.21618011e-01 
 4.28000000e-11  0.00000000e+00  6.21618011e-01 
 5.28000000e-11  0.00000000e+00  6.21618010e-01 
 6.28000000e-11  0.00000000e+00  6.21618006e-01 
 7.28000000e-11  0.00000000e+00  6.21617999e-01 
 8.28000000e-11  0.00000000e+00  6.21617989e-01 
 9.28000000e-11  0.00000000e+00  6.21617973e-01 
 1.00000000e-10  0.00000000e+00  6.21617959e-01 
 1.00000044e-10  5.27611810e-06  6.21618618e-01 
 1.00000132e-10  1.58283543e-05  6.21619937e-01 
 1.00000308e-10  3.69328267e-05  6.21622573e-01 
 1.00000660e-10  7.91417714e-05  6.21627846e-01 
 1.00001363e-10  1.63559661e-04  6.21638390e-01 
 1.00002770e-10  3.32395440e-04  6.21659477e-01 
 1.00005584e-10  6.70066998e-04  6.21701643e-01 
 1.00011212e-10  1.34541011e-03  6.21785936e-01 
 1.00022467e-10  2.69609635e-03  6.21954378e-01 
 1.00044979e-10  5.39746881e-03  6.22290679e-01 
 1.00090002e-10  1.08002137e-02  6.22960969e-01 
 1.00180048e-10  2.16057036e-02  6.24292427e-01 
 1.00360139e-10  4.32166833e-02  6.26920852e-01 
 1.00720322e-10  8.64386428e-02  6.32046874e-01 
 1.01162084e-10  1.39450046e-01  6.38110388e-01 
 1.01600451e-10  1.92054062e-01  6.43905245e-01 
 1.02048884e-10  2.45866097e-01  6.49627415e-01 
 1.02421563e-10  2.90587516e-01  6.54243099e-01 
 1.02592082e-10  3.11049841e-01  6.56320829e-01 
 1.02730766e-10  3.27691864e-01  6.57999667e-01 
 1.02862603e-10  3.43512300e-01  6.59589650e-01 
 1.02997876e-10  3.59745178e-01  6.61217663e-01 
 1.03151111e-10  3.78133279e-01  6.63063055e-01 
 1.03294474e-10  3.95336935e-01  6.64794018e-01 
 1.03447817e-10  4.13738023e-01  6.66647293e-01 
 1.03614250e-10  4.33709959e-01  6.68653526e-01 
 1.03787547e-10  4.54505580e-01  6.70723015e-01 
 1.03959810e-10  4.75177173e-01  6.72742319e-01 
 1.04152769e-10  4.98332252e-01  6.74936840e-01 
 1.04333616e-10  5.20033862e-01  6.76908081e-01 
 1.04523569e-10  5.42828320e-01  6.78866062e-01 
 1.04703606e-10  5.64432739e-01  6.80596757e-01 
 1.04900572e-10  5.88068631e-01  6.82330956e-01 
 1.05093876e-10  6.11265108e-01  6.83853810e-01 
 1.05302096e-10  6.36251502e-01  6.85277663e-01 
 1.05511014e-10  6.61321654e-01  6.86464588e-01 
 1.05735138e-10  6.88216555e-01  6.87452667e-01 
 1.05963884e-10  7.15666041e-01  6.88142339e-01 
 1.06208983e-10  7.45077932e-01  6.88510085e-01 
 1.06462395e-10  7.75487367e-01  6.88474407e-01 
 1.06733017e-10  8.07961984e-01  6.87958602e-01 
 1.07007381e-10  8.40885743e-01  6.86923851e-01 
 1.07296155e-10  8.75538632e-01  6.85272449e-01 
 1.07590189e-10  9.10822705e-01  6.82995925e-01 
 1.07898467e-10  9.47816060e-01  6.79965238e-01 
 1.08213927e-10  9.85671237e-01  6.76186270e-01 
 1.08544484e-10  1.02533805e+00  6.71500203e-01 
 1.08885812e-10  1.06629744e+00  6.65895848e-01 
 1.09223359e-10  1.10680314e+00  6.59612944e-01 
 1.09534574e-10  1.14414885e+00  6.53185280e-01 
 1.09864955e-10  1.18379462e+00  6.45712208e-01 
 1.10000000e-10  1.20000000e+00  6.42470147e-01 
 1.10000079e-10  1.20000000e+00  6.42466873e-01 
 1.10000237e-10  1.20000000e+00  6.42460325e-01 
 1.10000554e-10  1.20000000e+00  6.42447229e-01 
 1.10001187e-10  1.20000000e+00  6.42421040e-01 
 1.10002452e-10  1.20000000e+00  6.42368665e-01 
 1.10004984e-10  1.20000000e+00  6.42263939e-01 
 1.10010047e-10  1.20000000e+00  6.42054573e-01 
 1.10020172e-10  1.20000000e+00  6.41636191e-01 
 1.10040424e-10  1.20000000e+00  6.40800822e-01 
 1.10080927e-10  1.20000000e+00  6.39135636e-01 
 1.10161933e-10  1.20000000e+00  6.35827295e-01 
 1.10323946e-10  1.20000000e+00  6.29297285e-01 
 1.10647971e-10  1.20000000e+00  6.16572813e-01 
 1.10951277e-10  1.20000000e+00  6.05055761e-01 
 1.11257765e-10  1.20000000e+00  5.93791059e-01 
 1.11592813e-10  1.20000000e+00  5.81882363e-01 
 1.11914652e-10  1.20000000e+00  5.70821867e-01 
 1.12252634e-10  1.20000000e+00  5.59589344e-01 
 1.12585336e-10  1.20000000e+00  5.48897610e-01 
 1.12920180e-10  1.20000000e+00  5.38486303e-01 
 1.13254268e-10  1.20000000e+00  5.28432319e-01 
 1.13591566e-10  1.20000000e+00  5.18605487e-01 
 1.13930170e-10  1.20000000e+00  5.09054211e-01 
 1.14272492e-10  1.20000000e+00  4.99704731e-01 
 1.14617066e-10  1.20000000e+00  4.90593028e-01 
 1.14965751e-10  1.20000000e+00  4.81666871e-01 
 1.15317523e-10  1.20000000e+00  4.72950843e-01 
 1.15673891e-10  1.20000000e+00  4.64406742e-01 
 1.16034169e-10  1.20000000e+00  4.56051509e-01 
 1.16399634e-10  1.20000000e+00  4.47855874e-01 
 1.16786164e-10  1.20000000e+00  4.39484639e-01 
 1.17152323e-10  1.20000000e+00  4.31828438e-01 
 1.17526809e-10  1.20000000e+00  4.24265380e-01 
 1.17917017e-10  1.20000000e+00  4.16664042e-01 
 1.18312078e-10  1.20000000e+00  4.09250145e-01 
 1.18717974e-10  1.20000000e+00  4.01919855e-01 
 1.19130077e-10  1.20000000e+00  3.94766305e-01 
 1.19554872e-10  1.20000000e+00  3.87687924e-01 
 1.19985609e-10  1.20000000e+00  3.80807414e-01 
 1.20427702e-10  1.20000000e+00  3.74046371e-01 
 1.20877906e-10  1.20000000e+00  3.67463958e-01 
 1.21260907e-10  1.20000000e+00  3.62096697e-01 
 1.21608250e-10  1.20000000e+00  3.57407861e-01 
 1.21944785e-10  1.20000000e+00  3.53022028e-01 
 1.22272303e-10  1.20000000e+00  3.48897650e-01 
 1.22585318e-10  1.20000000e+00  3.45084515e-01 
 1.22894493e-10  1.20000000e+00  3.41437705e-01 
 1.23194401e-10  1.20000000e+00  3.38010112e-01 
 1.23486562e-10  1.20000000e+00  3.34771720e-01 
 1.23777596e-10  1.20000000e+00  3.31641331e-01 
 1.24053387e-10  1.20000000e+00  3.28759770e-01 
 1.24333860e-10  1.20000000e+00  3.25911031e-01 
 1.24598663e-10  1.20000000e+00  3.23294271e-01 
 1.24870500e-10  1.20000000e+00  3.20678807e-01 
 1.25131124e-10  1.20000000e+00  3.18235907e-01 
 1.25386420e-10  1.20000000e+00  3.15901699e-01 
 1.25673780e-10  1.20000000e+00  3.13341107e-01 
 1.25883345e-10  1.20000000e+00  3.11515381e-01 
 1.26145183e-10  1.20000000e+00  3.09281535e-01 
 1.26416520e-10  1.20000000e+00  3.07021238e-01 
 1.26652794e-10  1.20000000e+00  3.05095304e-01 
 1.26882921e-10  1.20000000e+00  3.03254772e-01 
 1.27135803e-10  1.20000000e+00  3.01269859e-01 
 1.27404670e-10  1.20000000e+00  2.99199887e-01 
 1.27665578e-10  1.20000000e+00  2.97228047e-01 
 1.27962192e-10  1.20000000e+00  2.95026987e-01 
 1.28237365e-10  1.20000000e+00  2.93020341e-01 
 1.28517925e-10  1.20000000e+00  2.91005962e-01 
 1.28834020e-10  1.20000000e+00  2.88770748e-01 
 1.29112230e-10  1.20000000e+00  2.86829844e-01 
 1.29418828e-10  1.20000000e+00  2.84715625e-01 
 1.29742232e-10  1.20000000e+00  2.82509537e-01 
 1.30049019e-10  1.20000000e+00  2.80435329e-01 
 1.30372735e-10  1.20000000e+00  2.78261910e-01 
 1.30704717e-10  1.20000000e+00  2.76044845e-01 
 1.31038110e-10  1.20000000e+00  2.73825888e-01 
 1.31408323e-10  1.20000000e+00  2.71363978e-01 
 1.31748492e-10  1.20000000e+00  2.69099197e-01 
 1.32126295e-10  1.20000000e+00  2.66576600e-01 
 1.32494243e-10  1.20000000e+00  2.64107477e-01 
 1.32861619e-10  1.20000000e+00  2.61625203e-01 
 1.33223283e-10  1.20000000e+00  2.59160601e-01 
 1.33599540e-10  1.20000000e+00  2.56570146e-01 
 1.33976049e-10  1.20000000e+00  2.53946976e-01 
 1.34362862e-10  1.20000000e+00  2.51215793e-01 
 1.34751993e-10  1.20000000e+00  2.48427606e-01 
 1.35156364e-10  1.20000000e+00  2.45483583e-01 
 1.35569340e-10  1.20000000e+00  2.42424753e-01 
 1.36001149e-10  1.20000000e+00  2.39167271e-01 
 1.36433779e-10  1.20000000e+00  2.35840772e-01 
 1.36867912e-10  1.20000000e+00  2.32438085e-01 
 1.37300378e-10  1.20000000e+00  2.28983433e-01 
 1.37736116e-10  1.20000000e+00  2.25437096e-01 
 1.38173079e-10  1.20000000e+00  2.21815605e-01 
 1.38614917e-10  1.20000000e+00  2.18089019e-01 
 1.39060257e-10  1.20000000e+00  2.14269542e-01 
 1.39512387e-10  1.20000000e+00  2.10330080e-01 
 1.39961152e-10  1.20000000e+00  2.06362476e-01 
 1.40396936e-10  1.20000000e+00  2.02459302e-01 
 1.40825860e-10  1.20000000e+00  1.98573929e-01 
 1.41243982e-10  1.20000000e+00  1.94749593e-01 
 1.41657883e-10  1.20000000e+00  1.90933114e-01 
 1.42064673e-10  1.20000000e+00  1.87157508e-01 
 1.42469124e-10  1.20000000e+00  1.83384582e-01 
 1.42869175e-10  1.20000000e+00  1.79639336e-01 
 1.43268348e-10  1.20000000e+00  1.75894496e-01 
 1.43667483e-10  1.20000000e+00  1.72147723e-01 
 1.44070131e-10  1.20000000e+00  1.68371425e-01 
 1.44475770e-10  1.20000000e+00  1.64576521e-01 
 1.44887007e-10  1.20000000e+00  1.60745193e-01 
 1.45303528e-10  1.20000000e+00  1.56887488e-01 
 1.45727718e-10  1.20000000e+00  1.52989237e-01 
 1.46160034e-10  1.20000000e+00  1.49055097e-01 
 1.46602795e-10  1.20000000e+00  1.45074020e-01 
 1.47057250e-10  1.20000000e+00  1.41046351e-01 
 1.47525566e-10  1.20000000e+00  1.36966251e-01 
 1.48009339e-10  1.20000000e+00  1.32835605e-01 
 1.48444924e-10  1.20000000e+00  1.29196132e-01 
 1.48765374e-10  1.20000000e+00  1.26570154e-01 
 1.49135234e-10  1.20000000e+00  1.23596875e-01 
 1.49518724e-10  1.20000000e+00  1.20582212e-01 
 1.49853560e-10  1.20000000e+00  1.18009398e-01 
 1.50224655e-10  1.20000000e+00  1.15225098e-01 
 1.50595477e-10  1.20000000e+00  1.12515550e-01 
 1.50948545e-10  1.20000000e+00  1.10005341e-01 
 1.51285838e-10  1.20000000e+00  1.07672323e-01 
 1.51637468e-10  1.20000000e+00  1.05309336e-01 
 1.51978643e-10  1.20000000e+00  1.03085501e-01 
 1.52328404e-10  1.20000000e+00  1.00877509e-01 
 1.52666288e-10  1.20000000e+00  9.88147666e-02 
 1.53008053e-10  1.20000000e+00  9.67997675e-02 
 1.53337351e-10  1.20000000e+00  9.49273104e-02 
 1.53667791e-10  1.20000000e+00  9.31175204e-02 
 1.53987373e-10  1.20000000e+00  9.14341050e-02 
 1.54307585e-10  1.20000000e+00  8.98143933e-02 
 1.54619561e-10  1.20000000e+00  8.83023251e-02 
 1.54912717e-10  1.20000000e+00  8.69417032e-02 
 1.55235198e-10  1.20000000e+00  8.55132923e-02 
 1.55562718e-10  1.20000000e+00  8.41374997e-02 
 1.55861358e-10  1.20000000e+00  8.29503339e-02 
 1.56168332e-10  1.20000000e+00  8.17987836e-02 
 1.56469653e-10  1.20000000e+00  8.07381436e-02 
 1.56781226e-10  1.20000000e+00  7.97162209e-02 
 1.57085535e-10  1.20000000e+00  7.87938347e-02 
 1.57398487e-10  1.20000000e+00  7.79258981e-02 
 1.57708910e-10  1.20000000e+00  7.71485389e-02 
 1.58029249e-10  1.20000000e+00  7.64367598e-02 
 1.58349472e-10  1.20000000e+00  7.58203801e-02 
 1.58680590e-10  1.20000000e+00  7.52868740e-02 
 1.59015367e-10  1.20000000e+00  7.48589134e-02 
 1.59363971e-10  1.20000000e+00  7.45370309e-02 
 1.59720860e-10  1.20000000e+00  7.43434778e-02 
 1.60063517e-10  1.20000000e+00  7.42920622e-02 
 1.60467458e-10  1.20000000e+00  7.44073124e-02 
 1.60928884e-10  1.20000000e+00  7.47810070e-02 
 1.61345572e-10  1.20000000e+00  7.53485807e-02 
 1.61768632e-10  1.20000000e+00  7.61565422e-02 
 1.62168144e-10  1.20000000e+00  7.71404261e-02 
 1.62553469e-10  1.20000000e+00  7.82981239e-02 
 1.62973478e-10  1.20000000e+00  7.97990559e-02 
 1.63421776e-10  1.20000000e+00  8.16817942e-02 
 1.63862556e-10  1.20000000e+00  8.38204222e-02 
 1.64309785e-10  1.20000000e+00  8.62856183e-02 
 1.64754256e-10  1.20000000e+00  8.90329786e-02 
 1.65207775e-10  1.20000000e+00  9.21432991e-02 
 1.65651661e-10  1.20000000e+00  9.54880357e-02 
 1.66095809e-10  1.20000000e+00  9.91312015e-02 
 1.66532304e-10  1.20000000e+00  1.02998443e-01 
 1.66971066e-10  1.20000000e+00  1.07164906e-01 
 1.67366442e-10  1.20000000e+00  1.11156619e-01 
 1.67842691e-10  1.20000000e+00  1.16262156e-01 
 1.68312859e-10  1.20000000e+00  1.21615001e-01 
 1.68749636e-10  1.20000000e+00  1.26861913e-01 
 1.69219223e-10  1.20000000e+00  1.32789717e-01 
 1.69659596e-10  1.20000000e+00  1.38612063e-01 
 1.70137982e-10  1.20000000e+00  1.45217550e-01 
 1.70599913e-10  1.20000000e+00  1.51864971e-01 
 1.71092397e-10  1.20000000e+00  1.59234015e-01 
 1.71577575e-10  1.20000000e+00  1.66768607e-01 
 1.72088526e-10  1.20000000e+00  1.74993564e-01 
 1.72626508e-10  1.20000000e+00  1.83961585e-01 
 1.73140960e-10  1.20000000e+00  1.92814784e-01 
 1.73670429e-10  1.20000000e+00  2.02197099e-01 
 1.74240552e-10  1.20000000e+00  2.12592476e-01 
 1.74819570e-10  1.20000000e+00  2.23445243e-01 
 1.75430861e-10  1.20000000e+00  2.35207983e-01 
 1.76057327e-10  1.20000000e+00  2.47568830e-01 
 1.76745276e-10  1.20000000e+00  2.61476337e-01 
 1.77405566e-10  1.20000000e+00  2.75130640e-01 
 1.78087172e-10  1.20000000e+00  2.89516043e-01 
 1.78753769e-10  1.20000000e+00  3.03847342e-01 
 1.79457134e-10  1.20000000e+00  3.19225641e-01 
 1.80166161e-10  1.20000000e+00  3.34968332e-01 
 1.80937934e-10  1.20000000e+00  3.52346302e-01 
 1.81731884e-10  1.20000000e+00  3.70449717e-01 
 1.82554863e-10  1.20000000e+00  3.89413322e-01 
 1.83439983e-10  1.20000000e+00  4.09981412e-01 
 1.84180245e-10  1.20000000e+00  4.27282457e-01 
 1.84830917e-10  1.20000000e+00  4.42536934e-01 
 1.85453793e-10  1.20000000e+00  4.57160446e-01 
 1.86155394e-10  1.20000000e+00  4.73632956e-01 
 1.86795085e-10  1.20000000e+00  4.88633147e-01 
 1.87481734e-10  1.20000000e+00  5.04692108e-01 
 1.88134183e-10  1.20000000e+00  5.19890838e-01 
 1.88821983e-10  1.20000000e+00  5.35827460e-01 
 1.89495408e-10  1.20000000e+00  5.51328363e-01 
 1.90204801e-10  1.20000000e+00  5.67524114e-01 
 1.90883898e-10  1.20000000e+00  5.82875633e-01 
 1.91565031e-10  1.20000000e+00  5.98102434e-01 
 1.92301625e-10  1.20000000e+00  6.14354648e-01 
 1.93023934e-10  1.20000000e+00  6.30052050e-01 
 1.93772707e-10  1.20000000e+00  6.46048544e-01 
 1.94516452e-10  1.20000000e+00  6.61634899e-01 
 1.95290092e-10  1.20000000e+00  6.77501064e-01 
 1.96029692e-10  1.20000000e+00  6.92313673e-01 
 1.96571569e-10  1.20000000e+00  7.02929681e-01 
 1.97181579e-10  1.20000000e+00  7.14629993e-01 
 1.97870907e-10  1.20000000e+00  7.27522376e-01 
 1.98395635e-10  1.20000000e+00  7.37092315e-01 
 1.99061544e-10  1.20000000e+00  7.48924083e-01 
 1.99676344e-10  1.20000000e+00  7.59528773e-01 
 2.00457057e-10  1.20000000e+00  7.72541592e-01 
 2.01171531e-10  1.20000000e+00  7.83997797e-01 
 2.01959900e-10  1.20000000e+00  7.96123688e-01 
 2.02756057e-10  1.20000000e+00  8.07809152e-01 
 2.03641294e-10  1.20000000e+00  8.20127883e-01 
 2.04378050e-10  1.20000000e+00  8.29833248e-01 
 2.05096945e-10  1.20000000e+00  8.38825619e-01 
 2.05886046e-10  1.20000000e+00  8.48161432e-01 
 2.06606555e-10  1.20000000e+00  8.56207442e-01 
 2.07346041e-10  1.20000000e+00  8.64004183e-01 
 2.08045482e-10  1.20000000e+00  8.70961973e-01 
 2.08742885e-10  1.20000000e+00  8.77510119e-01 
 2.09434405e-10  1.20000000e+00  8.83633974e-01 
 2.10138253e-10  1.20000000e+00  8.89505231e-01 
 2.10858104e-10  1.20000000e+00  8.95149239e-01 
 2.11595674e-10  1.20000000e+00  9.00571773e-01 
 2.12353278e-10  1.20000000e+00  9.05781198e-01 
 2.13130616e-10  1.20000000e+00  9.10767483e-01 
 2.13930681e-10  1.20000000e+00  9.15542237e-01 
 2.14754101e-10  1.20000000e+00  9.20101536e-01 
 2.15604030e-10  1.20000000e+00  9.24455217e-01 
 2.16457276e-10  1.20000000e+00  9.28490816e-01 
 2.17314761e-10  1.20000000e+00  9.32232830e-01 
 2.18172903e-10  1.20000000e+00  9.35686558e-01 
 2.19037775e-10  1.20000000e+00  9.38895408e-01 
 2.19896362e-10  1.20000000e+00  9.41832038e-01 
 2.20753701e-10  1.20000000e+00  9.44536775e-01 
 2.21637540e-10  1.20000000e+00  9.47106750e-01 
 2.22536975e-10  1.20000000e+00  9.49514006e-01 
 2.23342479e-10  1.20000000e+00  9.51508459e-01 
 2.24209050e-10  1.20000000e+00  9.53501610e-01 
 2.25048228e-10  1.20000000e+00  9.55296392e-01 
 2.25933602e-10  1.20000000e+00  9.57064313e-01 
 2.26838834e-10  1.20000000e+00  9.58758096e-01 
 2.27578496e-10  1.20000000e+00  9.60068953e-01 
 2.28251607e-10  1.20000000e+00  9.61213246e-01 
 2.28921454e-10  1.20000000e+00  9.62312851e-01 
 2.29648512e-10  1.20000000e+00  9.63468284e-01 
 2.30322580e-10  1.20000000e+00  9.64508478e-01 
 2.31030090e-10  1.20000000e+00  9.65572609e-01 
 2.31709889e-10  1.20000000e+00  9.66572000e-01 
 2.32425127e-10  1.20000000e+00  9.67602647e-01 
 2.33128411e-10  1.20000000e+00  9.68598249e-01 
 2.33866791e-10  1.20000000e+00  9.69627514e-01 
 2.34602551e-10  1.20000000e+00  9.70639475e-01 
 2.35371786e-10  1.20000000e+00  9.71685596e-01 
 2.36143466e-10  1.20000000e+00  9.72725345e-01 
 2.36944611e-10  1.20000000e+00  9.73797081e-01 
 2.37748354e-10  1.20000000e+00  9.74866855e-01 
 2.38573623e-10  1.20000000e+00  9.75962110e-01 
 2.39396020e-10  1.20000000e+00  9.77052712e-01 
 2.40228808e-10  1.20000000e+00  9.78158476e-01 
 2.41052296e-10  1.20000000e+00  9.79255132e-01 
 2.41850348e-10  1.20000000e+00  9.80322333e-01 
 2.42526843e-10  1.20000000e+00  9.81230928e-01 
 2.43127172e-10  1.20000000e+00  9.82040525e-01 
 2.43695250e-10  1.20000000e+00  9.82809480e-01 
 2.44309601e-10  1.20000000e+00  9.83643932e-01 
 2.44878574e-10  1.20000000e+00  9.84419594e-01 
 2.45558486e-10  1.20000000e+00  9.85351087e-01 
 2.46262215e-10  1.20000000e+00  9.86321512e-01 
 2.46795556e-10  1.20000000e+00  9.87061420e-01 
 2.47410256e-10  1.20000000e+00  9.87917574e-01 
 2.47976023e-10  1.20000000e+00  9.88707219e-01 
 2.48646100e-10  1.20000000e+00  9.89642239e-01 
 2.49302708e-10  1.20000000e+00  9.90555887e-01 
 2.50080221e-10  1.20000000e+00  9.91630936e-01 
 2.50814529e-10  1.20000000e+00  9.92637324e-01 
 2.51523693e-10  1.20000000e+00  9.93599867e-01 
 2.52246200e-10  1.20000000e+00  9.94568819e-01 
 2.52914571e-10  1.20000000e+00  9.95452727e-01 
 2.53587590e-10  1.20000000e+00  9.96329851e-01 
 2.54246564e-10  1.20000000e+00  9.97175355e-01 
 2.54909060e-10  1.20000000e+00  9.98011356e-01 
 2.55569859e-10  1.20000000e+00  9.98830428e-01 
 2.56285890e-10  1.20000000e+00  9.99700113e-01 
 2.56948541e-10  1.20000000e+00  1.00048679e+00 
 2.57405421e-10  1.20000000e+00  1.00101768e+00 
 2.57851499e-10  1.20000000e+00  1.00152545e+00 
 2.58471712e-10  1.20000000e+00  1.00221100e+00 
 2.59022395e-10  1.20000000e+00  1.00279659e+00 
 2.59497164e-10  1.20000000e+00  1.00328155e+00 
 2.59977182e-10  1.20000000e+00  1.00375113e+00 
 2.60496294e-10  1.20000000e+00  1.00423383e+00 
 2.60977794e-10  1.20000000e+00  1.00465729e+00 
 2.61479496e-10  1.20000000e+00  1.00507311e+00 
 2.61971431e-10  1.20000000e+00  1.00545557e+00 
 2.62487894e-10  1.20000000e+00  1.00583046e+00 
 2.63002718e-10  1.20000000e+00  1.00617763e+00 
 2.63539477e-10  1.20000000e+00  1.00651231e+00 
 2.64075002e-10  1.20000000e+00  1.00681947e+00 
 2.64622425e-10  1.20000000e+00  1.00710686e+00 
 2.65159150e-10  1.20000000e+00  1.00736330e+00 
 2.65690927e-10  1.20000000e+00  1.00759305e+00 
 2.66200238e-10  1.20000000e+00  1.00779038e+00 
 2.66692814e-10  1.20000000e+00  1.00795967e+00 
 2.67160036e-10  1.20000000e+00  1.00809997e+00 
 2.67609745e-10  1.20000000e+00  1.00821554e+00 
 2.68039617e-10  1.20000000e+00  1.00830733e+00 
 2.68458106e-10  1.20000000e+00  1.00837847e+00 
 2.68866065e-10  1.20000000e+00  1.00843015e+00 
 2.69271679e-10  1.20000000e+00  1.00846423e+00 
 2.69633997e-10  1.20000000e+00  1.00848039e+00 
 2.69979626e-10  1.20000000e+00  1.00848365e+00 
 2.70345929e-10  1.20000000e+00  1.00847461e+00 
 2.70697782e-10  1.20000000e+00  1.00845425e+00 
 2.71080308e-10  1.20000000e+00  1.00841936e+00 
 2.71501977e-10  1.20000000e+00  1.00836570e+00 
 2.71913847e-10  1.20000000e+00  1.00829814e+00 
 2.72321340e-10  1.20000000e+00  1.00821734e+00 
 2.72738787e-10  1.20000000e+00  1.00812183e+00 
 2.73179397e-10  1.20000000e+00  1.00800982e+00 
 2.73647574e-10  1.20000000e+00  1.00788226e+00 
 2.74140949e-10  1.20000000e+00  1.00774352e+00 
 2.74637288e-10  1.20000000e+00  1.00760515e+00 
 2.75151911e-10  1.20000000e+00  1.00746906e+00 
