 time            v(in1)          v(in2)          v(out)         
 0.00000000e+00  0.00000000e+00  0.00000000e+00  1.19999999e+00 
 1.00000000e-13  0.00000000e+00  0.00000000e+00  1.19999999e+00 
 2.00000000e-13  0.00000000e+00  0.00000000e+00  1.19999999e+00 
 4.00000000e-13  0.00000000e+00  0.00000000e+00  1.19999999e+00 
 8.00000000e-13  0.00000000e+00  0.00000000e+00  1.19999999e+00 
 1.60000000e-12  0.00000000e+00  0.00000000e+00  1.19999999e+00 
 3.20000000e-12  0.00000000e+00  0.00000000e+00  1.19999999e+00 
 6.40000000e-12  0.00000000e+00  0.00000000e+00  1.19999999e+00 
 1.28000000e-11  0.00000000e+00  0.00000000e+00  1.19999999e+00 
 2.28000000e-11  0.00000000e+00  0.00000000e+00  1.19999999e+00 
 3.28000000e-11  0.00000000e+00  0.00000000e+00  1.19999999e+00 
 4.28000000e-11  0.00000000e+00  0.00000000e+00  1.19999999e+00 
 5.28000000e-11  0.00000000e+00  0.00000000e+00  1.19999999e+00 
 6.28000000e-11  0.00000000e+00  0.00000000e+00  1.19999999e+00 
 7.28000000e-11  0.00000000e+00  0.00000000e+00  1.19999999e+00 
 8.28000000e-11  0.00000000e+00  0.00000000e+00  1.19999999e+00 
 9.28000000e-11  0.00000000e+00  0.00000000e+00  1.19999999e+00 
 1.00000000e-10  0.00000000e+00  0.00000000e+00  1.19999999e+00 
 1.00008367e-10  1.00408583e-04  0.00000000e+00  1.20006688e+00 
 1.00025102e-10  3.01225749e-04  0.00000000e+00  1.20020055e+00 
 1.00058572e-10  7.02860082e-04  0.00000000e+00  1.20046722e+00 
 1.00125511e-10  1.50612875e-03  0.00000000e+00  1.20099770e+00 
 1.00259389e-10  3.11266608e-03  0.00000000e+00  1.20204619e+00 
 1.00527145e-10  6.32574074e-03  0.00000000e+00  1.20408711e+00 
 1.01062658e-10  1.27518901e-02  0.00000000e+00  1.20791955e+00 
 1.02133682e-10  2.56041887e-02  0.00000000e+00  1.21456849e+00 
 1.03304215e-10  3.96505836e-02  0.00000000e+00  1.22042769e+00 
 1.04970252e-10  5.96430288e-02  0.00000000e+00  1.22677317e+00 
 1.06512757e-10  7.81530841e-02  0.00000000e+00  1.23105768e+00 
 1.08310766e-10  9.97291870e-02  0.00000000e+00  1.23471237e+00 
 1.10098082e-10  1.21176987e-01  0.00000000e+00  1.23733678e+00 
 1.12297880e-10  1.47574561e-01  0.00000000e+00  1.23966177e+00 
 1.14591973e-10  1.75103679e-01  0.00000000e+00  1.24139886e+00 
 1.17407376e-10  2.08888508e-01  0.00000000e+00  1.24298129e+00 
 1.20418458e-10  2.45021494e-01  0.00000000e+00  1.24432029e+00 
 1.24127061e-10  2.89524730e-01  0.00000000e+00  1.24578194e+00 
 1.28396263e-10  3.40755160e-01  0.00000000e+00  1.24744499e+00 
 1.30799638e-10  3.69595660e-01  0.00000000e+00  1.24841055e+00 
 1.32988612e-10  3.95863345e-01  0.00000000e+00  1.24925271e+00 
 1.35430427e-10  4.25165124e-01  0.00000000e+00  1.25000377e+00 
 1.38340592e-10  4.60087110e-01  0.00000000e+00  1.25031109e+00 
 1.41342847e-10  4.96114162e-01  0.00000000e+00  1.24949421e+00 
 1.44873278e-10  5.38479335e-01  0.00000000e+00  1.24636050e+00 
 1.48163131e-10  5.77957569e-01  0.00000000e+00  1.24067256e+00 
 1.50925417e-10  6.11105010e-01  0.00000000e+00  1.23329525e+00 
 1.53210001e-10  6.38520014e-01  0.00000000e+00  1.22496768e+00 
 1.55131542e-10  6.61578505e-01  0.00000000e+00  1.21603507e+00 
 1.56816884e-10  6.81802608e-01  0.00000000e+00  1.20641039e+00 
 1.58356448e-10  7.00277382e-01  0.00000000e+00  1.19582072e+00 
 1.59826205e-10  7.17914461e-01  0.00000000e+00  1.18376193e+00 
 1.61239076e-10  7.34868916e-01  0.00000000e+00  1.17004654e+00 
 1.62646803e-10  7.51761634e-01  0.00000000e+00  1.15402417e+00 
 1.64148061e-10  7.69776737e-01  0.00000000e+00  1.13408873e+00 
 1.65904484e-10  7.90853808e-01  0.00000000e+00  1.10678686e+00 
 1.67725518e-10  8.12706214e-01  0.00000000e+00  1.07385524e+00 
 1.69460129e-10  8.33521554e-01  0.00000000e+00  1.03816420e+00 
 1.71704398e-10  8.60452775e-01  0.00000000e+00  9.85890790e-01 
 1.74382380e-10  8.92588555e-01  0.00000000e+00  9.14743148e-01 
 1.76929493e-10  9.23153921e-01  0.00000000e+00  8.38431632e-01 
 1.78825197e-10  9.45902362e-01  0.00000000e+00  7.76318407e-01 
 1.80451754e-10  9.65421046e-01  0.00000000e+00  7.19550067e-01 
 1.81871549e-10  9.82458584e-01  0.00000000e+00  6.67515290e-01 
 1.83109713e-10  9.97316553e-01  0.00000000e+00  6.20390527e-01 
 1.84214138e-10  1.01056966e+00  0.00000000e+00  5.77128640e-01 
 1.85216791e-10  1.02260149e+00  0.00000000e+00  5.37002023e-01 
 1.86178630e-10  1.03414357e+00  0.00000000e+00  4.97919401e-01 
 1.87156623e-10  1.04587948e+00  0.00000000e+00  4.57812297e-01 
 1.88222109e-10  1.05866531e+00  0.00000000e+00  4.14037460e-01 
 1.89181871e-10  1.07018246e+00  0.00000000e+00  3.74903967e-01 
 1.90157056e-10  1.08188468e+00  0.00000000e+00  3.35893886e-01 
 1.91051999e-10  1.09262399e+00  0.00000000e+00  3.01195057e-01 
 1.91972772e-10  1.10367326e+00  0.00000000e+00  2.67070381e-01 
 1.92851674e-10  1.11422009e+00  0.00000000e+00  2.36402092e-01 
 1.93772226e-10  1.12526671e+00  0.00000000e+00  2.06671042e-01 
 1.94717012e-10  1.13660414e+00  0.00000000e+00  1.79013512e-01 
 1.95801701e-10  1.14962041e+00  0.00000000e+00  1.51063346e-01 
 1.97149278e-10  1.16579134e+00  0.00000000e+00  1.22012405e-01 
 1.98023761e-10  1.17628513e+00  0.00000000e+00  1.06380644e-01 
 1.98880840e-10  1.18657008e+00  0.00000000e+00  9.32946863e-02 
 2.00000000e-10  1.20000000e+00  0.00000000e+00  7.91533569e-02 
 2.00009239e-10  1.20000000e+00  0.00000000e+00  7.89755520e-02 
 2.00027717e-10  1.20000000e+00  0.00000000e+00  7.86207142e-02 
 2.00064672e-10  1.20000000e+00  0.00000000e+00  7.79155015e-02 
 2.00138584e-10  1.20000000e+00  0.00000000e+00  7.65224740e-02 
 2.00286406e-10  1.20000000e+00  0.00000000e+00  7.38048147e-02 
 2.00582052e-10  1.20000000e+00  0.00000000e+00  6.86337018e-02 
 2.01046894e-10  1.20000000e+00  0.00000000e+00  6.11794636e-02 
 2.01576343e-10  1.20000000e+00  0.00000000e+00  5.36164701e-02 
 2.02141190e-10  1.20000000e+00  0.00000000e+00  4.65273972e-02 
 2.02753893e-10  1.20000000e+00  0.00000000e+00  3.98557135e-02 
 2.03442419e-10  1.20000000e+00  0.00000000e+00  3.34589984e-02 
 2.04224650e-10  1.20000000e+00  0.00000000e+00  2.73975965e-02 
 2.05125736e-10  1.20000000e+00  0.00000000e+00  2.17360250e-02 
 2.06163908e-10  1.20000000e+00  0.00000000e+00  1.66243524e-02 
 2.07222488e-10  1.20000000e+00  0.00000000e+00  1.26369738e-02 
 2.08396421e-10  1.20000000e+00  0.00000000e+00  9.31302323e-03 
 2.09629895e-10  1.20000000e+00  0.00000000e+00  6.75312287e-03 
 2.11024278e-10  1.20000000e+00  0.00000000e+00  4.69015214e-03 
 2.12529259e-10  1.20000000e+00  0.00000000e+00  3.16068212e-03 
 2.14253633e-10  1.20000000e+00  0.00000000e+00  2.00618700e-03 
 2.16180370e-10  1.20000000e+00  0.00000000e+00  1.20426695e-03 
 2.18440391e-10  1.20000000e+00  0.00000000e+00  6.58367058e-04 
 2.21059038e-10  1.20000000e+00  0.00000000e+00  3.24527118e-04 
 2.24264891e-10  1.20000000e+00  0.00000000e+00  1.33894144e-04 
 2.28218279e-10  1.20000000e+00  0.00000000e+00  4.31189351e-05 
 2.33439256e-10  1.20000000e+00  0.00000000e+00  8.30044437e-06 
 2.40633017e-10  1.20000000e+00  0.00000000e+00  2.91786997e-07 
 2.50633017e-10  1.20000000e+00  0.00000000e+00 -3.19752711e-08 
 2.60633017e-10  1.20000000e+00  0.00000000e+00  9.92227096e-09 
 2.70633017e-10  1.20000000e+00  0.00000000e+00  4.50299552e-09 
 2.80633017e-10  1.20000000e+00  0.00000000e+00  5.20396117e-09 
 2.90633017e-10  1.20000000e+00  0.00000000e+00  5.11329359e-09 
 3.00633017e-10  1.20000000e+00  0.00000000e+00  5.12502131e-09 
 3.10633017e-10  1.20000000e+00  0.00000000e+00  5.12350418e-09 
 3.20633017e-10  1.20000000e+00  0.00000000e+00  5.12370039e-09 
 3.30633017e-10  1.20000000e+00  0.00000000e+00  5.12367498e-09 
 3.40633017e-10  1.20000000e+00  0.00000000e+00  5.12367836e-09 
 3.50633017e-10  1.20000000e+00  0.00000000e+00  5.12367785e-09 
 3.60633017e-10  1.20000000e+00  0.00000000e+00  5.12367790e-09 
 3.70633017e-10  1.20000000e+00  0.00000000e+00  5.12367795e-09 
 3.80633017e-10  1.20000000e+00  0.00000000e+00  5.12367800e-09 
 3.90633017e-10  1.20000000e+00  0.00000000e+00  5.12367795e-09 
 4.00633017e-10  1.20000000e+00  0.00000000e+00  5.12367795e-09 
 4.10633017e-10  1.20000000e+00  0.00000000e+00  5.12367805e-09 
 4.20633017e-10  1.20000000e+00  0.00000000e+00  5.12367800e-09 
 4.30633017e-10  1.20000000e+00  0.00000000e+00  5.12367785e-09 
 4.40633017e-10  1.20000000e+00  0.00000000e+00  5.12367800e-09 
 4.50633017e-10  1.20000000e+00  0.00000000e+00  5.12367790e-09 
 4.60633017e-10  1.20000000e+00  0.00000000e+00  5.12367800e-09 
 4.70633017e-10  1.20000000e+00  0.00000000e+00  5.12367790e-09 
 4.80633017e-10  1.20000000e+00  0.00000000e+00  5.12367800e-09 
 4.90633017e-10  1.20000000e+00  0.00000000e+00  5.12367790e-09 
 5.00633017e-10  1.20000000e+00  0.00000000e+00  5.12367800e-09 
 5.10633017e-10  1.20000000e+00  0.00000000e+00  5.12367790e-09 
 5.20633017e-10  1.20000000e+00  0.00000000e+00  5.12367800e-09 
 5.30633017e-10  1.20000000e+00  0.00000000e+00  5.12367790e-09 
 5.40633017e-10  1.20000000e+00  0.00000000e+00  5.12367800e-09 
 5.50633017e-10  1.20000000e+00  0.00000000e+00  5.12367790e-09 
 5.60633017e-10  1.20000000e+00  0.00000000e+00  5.12367800e-09 
 5.70633017e-10  1.20000000e+00  0.00000000e+00  5.12367795e-09 
 5.80633017e-10  1.20000000e+00  0.00000000e+00  5.12367800e-09 
 5.90633017e-10  1.20000000e+00  0.00000000e+00  5.12367800e-09 
 6.00633017e-10  1.20000000e+00  0.00000000e+00  5.12367800e-09 
 6.10633017e-10  1.20000000e+00  0.00000000e+00  5.12367800e-09 
 6.20633017e-10  1.20000000e+00  0.00000000e+00  5.12367800e-09 
 6.30633017e-10  1.20000000e+00  0.00000000e+00  5.12367800e-09 
 6.40633017e-10  1.20000000e+00  0.00000000e+00  5.12367800e-09 
 6.50633017e-10  1.20000000e+00  0.00000000e+00  5.12367800e-09 
 6.60633017e-10  1.20000000e+00  0.00000000e+00  5.12367800e-09 
 6.70633017e-10  1.20000000e+00  0.00000000e+00  5.12367800e-09 
 6.80633017e-10  1.20000000e+00  0.00000000e+00  5.12367800e-09 
 6.90633017e-10  1.20000000e+00  0.00000000e+00  5.12367800e-09 
 7.00633017e-10  1.20000000e+00  0.00000000e+00  5.12367800e-09 
 7.10633017e-10  1.20000000e+00  0.00000000e+00  5.12367800e-09 
 7.20633017e-10  1.20000000e+00  0.00000000e+00  5.12367800e-09 
 7.30633017e-10  1.20000000e+00  0.00000000e+00  5.12367800e-09 
 7.40633017e-10  1.20000000e+00  0.00000000e+00  5.12367800e-09 
 7.50633017e-10  1.20000000e+00  0.00000000e+00  5.12367800e-09 
 7.60633017e-10  1.20000000e+00  0.00000000e+00  5.12367800e-09 
 7.70633017e-10  1.20000000e+00  0.00000000e+00  5.12367800e-09 
 7.80633017e-10  1.20000000e+00  0.00000000e+00  5.12367800e-09 
 7.90633017e-10  1.20000000e+00  0.00000000e+00  5.12367800e-09 
 8.00633017e-10  1.20000000e+00  0.00000000e+00  5.12367800e-09 
 8.10633017e-10  1.20000000e+00  0.00000000e+00  5.12367800e-09 
 8.20633017e-10  1.20000000e+00  0.00000000e+00  5.12367800e-09 
 8.30633017e-10  1.20000000e+00  0.00000000e+00  5.12367800e-09 
 8.40633017e-10  1.20000000e+00  0.00000000e+00  5.12367800e-09 
 8.50633017e-10  1.20000000e+00  0.00000000e+00  5.12367800e-09 
 8.60633017e-10  1.20000000e+00  0.00000000e+00  5.12367800e-09 
 8.70633017e-10  1.20000000e+00  0.00000000e+00  5.12367800e-09 
 8.80633017e-10  1.20000000e+00  0.00000000e+00  5.12367800e-09 
 8.90633017e-10  1.20000000e+00  0.00000000e+00  5.12367800e-09 
 9.00633017e-10  1.20000000e+00  0.00000000e+00  5.12367800e-09 
 9.10633017e-10  1.20000000e+00  0.00000000e+00  5.12367800e-09 
 9.20633017e-10  1.20000000e+00  0.00000000e+00  5.12367800e-09 
 9.30633017e-10  1.20000000e+00  0.00000000e+00  5.12367800e-09 
 9.40633017e-10  1.20000000e+00  0.00000000e+00  5.12367800e-09 
 9.50633017e-10  1.20000000e+00  0.00000000e+00  5.12367800e-09 
 9.60633017e-10  1.20000000e+00  0.00000000e+00  5.12367800e-09 
 9.70633017e-10  1.20000000e+00  0.00000000e+00  5.12367800e-09 
 9.80633017e-10  1.20000000e+00  0.00000000e+00  5.12367800e-09 
 9.90633017e-10  1.20000000e+00  0.00000000e+00  5.12367800e-09 
 1.00063302e-09  1.20000000e+00  0.00000000e+00  5.12367800e-09 
 1.01063302e-09  1.20000000e+00  0.00000000e+00  5.12367800e-09 
 1.02063302e-09  1.20000000e+00  0.00000000e+00  5.12367800e-09 
 1.03063302e-09  1.20000000e+00  0.00000000e+00  5.12367800e-09 
 1.04063302e-09  1.20000000e+00  0.00000000e+00  5.12367800e-09 
 1.05063302e-09  1.20000000e+00  0.00000000e+00  5.12367800e-09 
 1.06063302e-09  1.20000000e+00  0.00000000e+00  5.12367800e-09 
 1.07063302e-09  1.20000000e+00  0.00000000e+00  5.12367800e-09 
 1.08063302e-09  1.20000000e+00  0.00000000e+00  5.12367800e-09 
 1.09063302e-09  1.20000000e+00  0.00000000e+00  5.12367800e-09 
 1.10000000e-09  1.20000000e+00  0.00000000e+00  5.12367792e-09 
 1.10000569e-09  1.20000000e+00  6.82692932e-05  1.48741256e-05 
 1.10001707e-09  1.20000000e+00  2.04807880e-04  4.45683119e-05 
 1.10003982e-09  1.20000000e+00  4.77885052e-04  1.03694499e-04 
 1.10008534e-09  1.20000000e+00  1.02403940e-03  2.20906147e-04 
 1.10017636e-09  1.20000000e+00  2.11634809e-03  4.51227817e-04 
 1.10035841e-09  1.20000000e+00  4.30096547e-03  8.95941893e-04 
 1.10072252e-09  1.20000000e+00  8.67020023e-03  1.72527355e-03 
 1.10125170e-09  1.20000000e+00  1.50203818e-02  2.80021494e-03 
 1.10175004e-09  1.20000000e+00  2.10004253e-02  3.68628678e-03 
 1.10233579e-09  1.20000000e+00  2.80294876e-02  4.59263526e-03 
 1.10292774e-09  1.20000000e+00  3.51329078e-02  5.37951221e-03 
 1.10365929e-09  1.20000000e+00  4.39115378e-02  6.20074080e-03 
 1.10442727e-09  1.20000000e+00  5.31272533e-02  6.91205407e-03 
 1.10537519e-09  1.20000000e+00  6.45022491e-02  7.61793242e-03 
 1.10643165e-09  1.20000000e+00  7.71797513e-02  8.22702532e-03 
 1.10776192e-09  1.20000000e+00  9.31430008e-02  8.79442177e-03 
 1.10934138e-09  1.20000000e+00  1.12096554e-01  9.26066459e-03 
 1.11145761e-09  1.20000000e+00  1.37491278e-01  9.65523866e-03 
 1.11422673e-09  1.20000000e+00  1.70720734e-01  9.93735238e-03 
 1.11796199e-09  1.20000000e+00  2.15543858e-01  1.01105735e-02 
 1.12232662e-09  1.20000000e+00  2.67919388e-01  1.01884292e-02 
 1.12869451e-09  1.20000000e+00  3.44334144e-01  1.02313282e-02 
 1.13196487e-09  1.20000000e+00  3.83578426e-01  1.02511720e-02 
 1.13567657e-09  1.20000000e+00  4.28118783e-01  1.01924356e-02 
 1.13968517e-09  1.20000000e+00  4.76222022e-01  9.95383805e-03 
 1.14340898e-09  1.20000000e+00  5.20907744e-01  9.58461462e-03 
 1.14678025e-09  1.20000000e+00  5.61362954e-01  9.18922211e-03 
 1.14986905e-09  1.20000000e+00  5.98428626e-01  8.81848688e-03 
 1.15274398e-09  1.20000000e+00  6.32927760e-01  8.48635836e-03 
 1.15547787e-09  1.20000000e+00  6.65734495e-01  8.19035581e-03 
 1.15815998e-09  1.20000000e+00  6.97919718e-01  7.92129983e-03 
 1.16110987e-09  1.20000000e+00  7.33318451e-01  7.65039998e-03 
 1.16385181e-09  1.20000000e+00  7.66221745e-01  7.42101162e-03 
 1.16708731e-09  1.20000000e+00  8.05047673e-01  7.17521752e-03 
 1.17051920e-09  1.20000000e+00  8.46230430e-01  6.94090410e-03 
 1.17284390e-09  1.20000000e+00  8.74126834e-01  6.79596705e-03 
 1.17507194e-09  1.20000000e+00  9.00863267e-01  6.66638969e-03 
 1.17795361e-09  1.20000000e+00  9.35443348e-01  6.51106985e-03 
 1.18059209e-09  1.20000000e+00  9.67105024e-01  6.37987238e-03 
 1.18381949e-09  1.20000000e+00  1.00583393e+00  6.23219466e-03 
 1.18701165e-09  1.20000000e+00  1.04413984e+00  6.09864283e-03 
 1.19104131e-09  1.20000000e+00  1.09249567e+00  5.94617356e-03 
 1.19532530e-09  1.20000000e+00  1.14390359e+00  5.80285855e-03 
 1.20000000e-09  1.20000000e+00  1.20000000e+00  5.67090867e-03 
 1.20000339e-09  1.20000000e+00  1.20000000e+00  5.66096188e-03 
 1.20001016e-09  1.20000000e+00  1.20000000e+00  5.64110332e-03 
 1.20002371e-09  1.20000000e+00  1.20000000e+00  5.60159565e-03 
 1.20005081e-09  1.20000000e+00  1.20000000e+00  5.52341078e-03 
 1.20010500e-09  1.20000000e+00  1.20000000e+00  5.37030546e-03 
 1.20021338e-09  1.20000000e+00  1.20000000e+00  5.07670645e-03 
 1.20043015e-09  1.20000000e+00  1.20000000e+00  4.53659903e-03 
 1.20086369e-09  1.20000000e+00  1.20000000e+00  3.62093491e-03 
 1.20173076e-09  1.20000000e+00  1.20000000e+00  2.29651507e-03 
 1.20292226e-09  1.20000000e+00  1.20000000e+00  1.22319987e-03 
 1.20417565e-09  1.20000000e+00  1.20000000e+00  6.38208346e-04 
 1.20568284e-09  1.20000000e+00  1.20000000e+00  2.99478789e-04 
 1.20746691e-09  1.20000000e+00  1.20000000e+00  1.34088866e-04 
 1.20988529e-09  1.20000000e+00  1.20000000e+00  6.09099915e-05 
 1.21307964e-09  1.20000000e+00  1.20000000e+00  4.14619992e-05 
 1.21797452e-09  1.20000000e+00  1.20000000e+00  3.90200024e-05 
 1.22602672e-09  1.20000000e+00  1.20000000e+00  3.87852988e-05 
 1.23602672e-09  1.20000000e+00  1.20000000e+00  3.80047356e-05 
 1.24602672e-09  1.20000000e+00  1.20000000e+00  3.74210793e-05 
 1.25602672e-09  1.20000000e+00  1.20000000e+00  3.67812699e-05 
 1.26602672e-09  1.20000000e+00  1.20000000e+00  3.61958360e-05 
 1.27602672e-09  1.20000000e+00  1.20000000e+00  3.56139104e-05 
 1.28602672e-09  1.20000000e+00  1.20000000e+00  3.50569499e-05 
 1.29602672e-09  1.20000000e+00  1.20000000e+00  3.45141219e-05 
 1.30602672e-09  1.20000000e+00  1.20000000e+00  3.39891202e-05 
 1.31602672e-09  1.20000000e+00  1.20000000e+00  3.34792058e-05 
 1.32602672e-09  1.20000000e+00  1.20000000e+00  3.29845832e-05 
 1.33602672e-09  1.20000000e+00  1.20000000e+00  3.25041987e-05 
 1.34602672e-09  1.20000000e+00  1.20000000e+00  3.20376167e-05 
 1.35602672e-09  1.20000000e+00  1.20000000e+00  3.15841763e-05 
 1.36602672e-09  1.20000000e+00  1.20000000e+00  3.11433651e-05 
 1.37602672e-09  1.20000000e+00  1.20000000e+00  3.07146486e-05 
 1.38602672e-09  1.20000000e+00  1.20000000e+00  3.02975437e-05 
 1.39602672e-09  1.20000000e+00  1.20000000e+00  2.98915827e-05 
 1.40602672e-09  1.20000000e+00  1.20000000e+00  2.94963272e-05 
 1.41602672e-09  1.20000000e+00  1.20000000e+00  2.91113594e-05 
 1.42602672e-09  1.20000000e+00  1.20000000e+00  2.87362839e-05 
 1.43602672e-09  1.20000000e+00  1.20000000e+00  2.83707249e-05 
 1.44602672e-09  1.20000000e+00  1.20000000e+00  2.80143254e-05 
 1.45602672e-09  1.20000000e+00  1.20000000e+00  2.76667461e-05 
 1.46602672e-09  1.20000000e+00  1.20000000e+00  2.73276641e-05 
 1.47602672e-09  1.20000000e+00  1.20000000e+00  2.69967721e-05 
 1.48602672e-09  1.20000000e+00  1.20000000e+00  2.66737776e-05 
 1.49602672e-09  1.20000000e+00  1.20000000e+00  2.63584015e-05 
 1.50602672e-09  1.20000000e+00  1.20000000e+00  2.60503780e-05 
 1.51602672e-09  1.20000000e+00  1.20000000e+00  2.57494534e-05 
 1.52602672e-09  1.20000000e+00  1.20000000e+00  2.54553854e-05 
 1.53602672e-09  1.20000000e+00  1.20000000e+00  2.51679427e-05 
 1.54602672e-09  1.20000000e+00  1.20000000e+00  2.48869043e-05 
 1.55602672e-09  1.20000000e+00  1.20000000e+00  2.46120589e-05 
 1.56602672e-09  1.20000000e+00  1.20000000e+00  2.43432043e-05 
 1.57602672e-09  1.20000000e+00  1.20000000e+00  2.40801471e-05 
 1.58602672e-09  1.20000000e+00  1.20000000e+00  2.38227020e-05 
 1.59602672e-09  1.20000000e+00  1.20000000e+00  2.35706917e-05 
 1.60602672e-09  1.20000000e+00  1.20000000e+00  2.33239461e-05 
 1.61602672e-09  1.20000000e+00  1.20000000e+00  2.30823021e-05 
 1.62602672e-09  1.20000000e+00  1.20000000e+00  2.28456035e-05 
 1.63602672e-09  1.20000000e+00  1.20000000e+00  2.26137002e-05 
 1.64602672e-09  1.20000000e+00  1.20000000e+00  2.23864481e-05 
 1.65602672e-09  1.20000000e+00  1.20000000e+00  2.21637089e-05 
 1.66602672e-09  1.20000000e+00  1.20000000e+00  2.19453497e-05 
 1.67602672e-09  1.20000000e+00  1.20000000e+00  2.17312427e-05 
 1.68602672e-09  1.20000000e+00  1.20000000e+00  2.15212651e-05 
 1.69602672e-09  1.20000000e+00  1.20000000e+00  2.13152987e-05 
 1.70602672e-09  1.20000000e+00  1.20000000e+00  2.11132299e-05 
 1.71602672e-09  1.20000000e+00  1.20000000e+00  2.09149492e-05 
 1.72602672e-09  1.20000000e+00  1.20000000e+00  2.07203513e-05 
 1.73602672e-09  1.20000000e+00  1.20000000e+00  2.05293345e-05 
 1.74602672e-09  1.20000000e+00  1.20000000e+00  2.03418011e-05 
