 time            v(in1)          v(in2)          v(out)         
 0.00000000e+00  0.00000000e+00  0.00000000e+00  5.12368158e-09 
 1.00000000e-13  0.00000000e+00  0.00000000e+00  5.12368147e-09 
 2.00000000e-13  0.00000000e+00  0.00000000e+00  5.12368147e-09 
 4.00000000e-13  0.00000000e+00  0.00000000e+00  5.12368147e-09 
 8.00000000e-13  0.00000000e+00  0.00000000e+00  5.12368188e-09 
 1.60000000e-12  0.00000000e+00  0.00000000e+00  5.12368322e-09 
 3.20000000e-12  0.00000000e+00  0.00000000e+00  5.12368264e-09 
 6.40000000e-12  0.00000000e+00  0.00000000e+00  5.12368166e-09 
 1.28000000e-11  0.00000000e+00  0.00000000e+00  5.12368135e-09 
 2.28000000e-11  0.00000000e+00  0.00000000e+00  5.12368174e-09 
 3.28000000e-11  0.00000000e+00  0.00000000e+00  5.12368156e-09 
 4.28000000e-11  0.00000000e+00  0.00000000e+00  5.12368174e-09 
 5.28000000e-11  0.00000000e+00  0.00000000e+00  5.12368156e-09 
 6.28000000e-11  0.00000000e+00  0.00000000e+00  5.12368198e-09 
 7.28000000e-11  0.00000000e+00  0.00000000e+00  5.12368192e-09 
 8.28000000e-11  0.00000000e+00  0.00000000e+00  5.12368156e-09 
 9.28000000e-11  0.00000000e+00  0.00000000e+00  5.12368168e-09 
 1.00000000e-10  0.00000000e+00  0.00000000e+00  5.12368157e-09 
 1.00000837e-10  1.00408585e-05  0.00000000e+00  3.48132372e-06 
 1.00002510e-10  3.01225755e-05  0.00000000e+00  1.04319805e-05 
 1.00005857e-10  7.02860095e-05  0.00000000e+00  2.43228173e-05 
 1.00012551e-10  1.50612877e-04  0.00000000e+00  5.20624295e-05 
 1.00025939e-10  3.11266613e-04  0.00000000e+00  1.07372170e-04 
 1.00052715e-10  6.32574085e-04  0.00000000e+00  2.17304216e-04 
 1.00106266e-10  1.27518903e-03  0.00000000e+00  4.34348939e-04 
 1.00213368e-10  2.56041892e-03  0.00000000e+00  8.56696077e-04 
 1.00427573e-10  5.13087869e-03  0.00000000e+00  1.65192373e-03 
 1.00713262e-10  8.55913875e-03  0.00000000e+00  2.60630320e-03 
 1.01016901e-10  1.22028158e-02  0.00000000e+00  3.48753966e-03 
 1.01379730e-10  1.65567567e-02  0.00000000e+00  4.36977661e-03 
 1.01772268e-10  2.12672153e-02  0.00000000e+00  5.13410116e-03 
 1.02253401e-10  2.70408102e-02  0.00000000e+00  5.83901259e-03 
 1.02792382e-10  3.35085810e-02  0.00000000e+00  6.37845417e-03 
 1.03362905e-10  4.03548625e-02  0.00000000e+00  6.72291668e-03 
 1.03935697e-10  4.72283684e-02  0.00000000e+00  6.89058306e-03 
 1.04514916e-10  5.41789929e-02  0.00000000e+00  6.92582334e-03 
 1.05125043e-10  6.15005152e-02  0.00000000e+00  6.85757959e-03 
 1.05772720e-10  6.92726404e-02  0.00000000e+00  6.70262384e-03 
 1.06467408e-10  7.76088968e-02  0.00000000e+00  6.47419262e-03 
 1.07209892e-10  8.65187066e-02  0.00000000e+00  6.18755090e-03 
 1.07996858e-10  9.59622957e-02  0.00000000e+00  5.85921987e-03 
 1.08868217e-10  1.06418607e-01  0.00000000e+00  5.48634548e-03 
 1.09796738e-10  1.17560862e-01  0.00000000e+00  5.09478031e-03 
 1.10770803e-10  1.29249631e-01  0.00000000e+00  4.70204861e-03 
 1.11825144e-10  1.41901729e-01  0.00000000e+00  4.30533245e-03 
 1.12937303e-10  1.55247631e-01  0.00000000e+00  3.92259878e-03 
 1.14126343e-10  1.69516114e-01  0.00000000e+00  3.55471008e-03 
 1.15370910e-10  1.84450918e-01  0.00000000e+00  3.21362259e-03 
 1.16689466e-10  2.00273590e-01  0.00000000e+00  2.89774709e-03 
 1.18064896e-10  2.16778752e-01  0.00000000e+00  2.61335452e-03 
 1.19514749e-10  2.34176988e-01  0.00000000e+00  2.35784823e-03 
 1.21026290e-10  2.52315485e-01  0.00000000e+00  2.13389858e-03 
 1.22617132e-10  2.71405585e-01  0.00000000e+00  1.93876737e-03 
 1.24280173e-10  2.91362081e-01  0.00000000e+00  1.77297897e-03 
 1.26037638e-10  3.12451652e-01  0.00000000e+00  1.63361021e-03 
 1.27903648e-10  3.34843776e-01  0.00000000e+00  1.51835808e-03 
 1.29352546e-10  3.52230550e-01  0.00000000e+00  1.44681617e-03 
 1.30674485e-10  3.68093819e-01  0.00000000e+00  1.38892779e-03 
 1.31977502e-10  3.83730024e-01  0.00000000e+00  1.33323114e-03 
 1.33396231e-10  4.00754772e-01  0.00000000e+00  1.26552639e-03 
 1.34736974e-10  4.16843686e-01  0.00000000e+00  1.18414251e-03 
 1.35963449e-10  4.31561393e-01  0.00000000e+00  1.08631031e-03 
 1.37146635e-10  4.45759618e-01  0.00000000e+00  9.64190588e-04 
 1.38435683e-10  4.61228193e-01  0.00000000e+00  7.94274603e-04 
 1.39616931e-10  4.75403175e-01  0.00000000e+00  6.00941548e-04 
 1.40858217e-10  4.90298601e-01  0.00000000e+00  3.56268675e-04 
 1.42039931e-10  5.04479172e-01  0.00000000e+00  8.24126717e-05 
 1.43282711e-10  5.19392538e-01  0.00000000e+00 -2.49234463e-04 
 1.44492174e-10  5.33906091e-01  0.00000000e+00 -6.14957954e-04 
 1.45752498e-10  5.49029981e-01  0.00000000e+00 -1.04082561e-03 
 1.46988040e-10  5.63856485e-01  0.00000000e+00 -1.50238571e-03 
 1.48256361e-10  5.79076333e-01  0.00000000e+00 -2.02157347e-03 
 1.49494265e-10  5.93931183e-01  0.00000000e+00 -2.57326820e-03 
 1.50738440e-10  6.08861279e-01  0.00000000e+00 -3.17400696e-03 
 1.51937624e-10  6.23251483e-01  0.00000000e+00 -3.79935096e-03 
 1.53116564e-10  6.37398770e-01  0.00000000e+00 -4.46200433e-03 
 1.54239383e-10  6.50872594e-01  0.00000000e+00 -5.14160599e-03 
 1.55326787e-10  6.63921444e-01  0.00000000e+00 -5.85008382e-03 
 1.56357775e-10  6.76293306e-01  0.00000000e+00 -6.57319137e-03 
 1.57351168e-10  6.88214013e-01  0.00000000e+00 -7.32334313e-03 
 1.58296232e-10  6.99554782e-01  0.00000000e+00 -8.09181204e-03 
 1.59209719e-10  7.10516626e-01  0.00000000e+00 -8.89157587e-03 
 1.60087355e-10  7.21048255e-01  0.00000000e+00 -9.71855463e-03 
 1.60944598e-10  7.31335173e-01  0.00000000e+00 -1.05872251e-02 
 1.61781436e-10  7.41377234e-01  0.00000000e+00 -1.14979336e-02 
 1.62615565e-10  7.51386784e-01  0.00000000e+00 -1.24709109e-02 
 1.63454650e-10  7.61455802e-01  0.00000000e+00 -1.35174040e-02 
 1.64320223e-10  7.71842679e-01  0.00000000e+00 -1.46684447e-02 
 1.65223131e-10  7.82677572e-01  0.00000000e+00 -1.59451003e-02 
 1.66180536e-10  7.94166434e-01  0.00000000e+00 -1.73804212e-02 
 1.67202113e-10  8.06425351e-01  0.00000000e+00 -1.89990379e-02 
 1.68152697e-10  8.17832365e-01  0.00000000e+00 -2.05788958e-02 
 1.69051191e-10  8.28614291e-01  0.00000000e+00 -2.21298463e-02 
 1.69992785e-10  8.39913421e-01  0.00000000e+00 -2.38081523e-02 
 1.71031100e-10  8.52373206e-01  0.00000000e+00 -2.57158002e-02 
 1.72249450e-10  8.66993401e-01  0.00000000e+00 -2.80270381e-02 
 1.73769726e-10  8.85236714e-01  0.00000000e+00 -3.10253187e-02 
 1.75485610e-10  9.05827323e-01  0.00000000e+00 -3.45805195e-02 
 1.77103670e-10  9.25244042e-01  0.00000000e+00 -3.81285352e-02 
 1.78804946e-10  9.45659352e-01  0.00000000e+00 -4.21055213e-02 
 1.80533400e-10  9.66400803e-01  0.00000000e+00 -4.64555211e-02 
 1.82450958e-10  9.89411498e-01  0.00000000e+00 -5.17232650e-02 
 1.84195899e-10  1.01035079e+00  0.00000000e+00 -5.70029955e-02 
 1.85720180e-10  1.02864217e+00  0.00000000e+00 -6.20710431e-02 
 1.87132271e-10  1.04558725e+00  0.00000000e+00 -6.72143855e-02 
 1.88146356e-10  1.05775628e+00  0.00000000e+00 -7.12129380e-02 
 1.88815462e-10  1.06578555e+00  0.00000000e+00 -7.39983155e-02 
 1.89407629e-10  1.07289155e+00  0.00000000e+00 -7.65518408e-02 
 1.90007224e-10  1.08008668e+00  0.00000000e+00 -7.91984194e-02 
 1.90683954e-10  1.08820744e+00  0.00000000e+00 -8.22236141e-02 
 1.91304484e-10  1.09565381e+00  0.00000000e+00 -8.49813781e-02 
 1.91900783e-10  1.10280940e+00  0.00000000e+00 -8.75411132e-02 
 1.92461858e-10  1.10954230e+00  0.00000000e+00 -8.97988020e-02 
 1.93015888e-10  1.11619065e+00  0.00000000e+00 -9.18129478e-02 
 1.93554898e-10  1.12265878e+00  0.00000000e+00 -9.34984333e-02 
 1.94095475e-10  1.12914570e+00  0.00000000e+00 -9.48484444e-02 
 1.94629350e-10  1.13555220e+00  0.00000000e+00 -9.57812822e-02 
 1.95168167e-10  1.14201801e+00  0.00000000e+00 -9.62542211e-02 
 1.95705037e-10  1.14846044e+00  0.00000000e+00 -9.61951899e-02 
 1.96248560e-10  1.15498272e+00  0.00000000e+00 -9.55352739e-02 
 1.96796086e-10  1.16155303e+00  0.00000000e+00 -9.42007905e-02 
 1.97365925e-10  1.16839110e+00  0.00000000e+00 -9.20364724e-02 
 1.97945689e-10  1.17534826e+00  0.00000000e+00 -8.89601040e-02 
 1.98544732e-10  1.18253678e+00  0.00000000e+00 -8.47883740e-02 
 1.99149149e-10  1.18978979e+00  0.00000000e+00 -7.94876014e-02 
 1.99738354e-10  1.19686025e+00  0.00000000e+00 -7.31974956e-02 
 2.00000000e-10  1.20000000e+00  0.00000000e+00 -7.00367176e-02 
 2.00000497e-10  1.20000000e+00  0.00000000e+00 -7.00327333e-02 
 2.00001490e-10  1.20000000e+00  0.00000000e+00 -7.00247618e-02 
 2.00003476e-10  1.20000000e+00  0.00000000e+00 -7.00088005e-02 
 2.00007448e-10  1.20000000e+00  0.00000000e+00 -6.99768047e-02 
 2.00015393e-10  1.20000000e+00  0.00000000e+00 -6.99125204e-02 
 2.00031282e-10  1.20000000e+00  0.00000000e+00 -6.97827822e-02 
 2.00063060e-10  1.20000000e+00  0.00000000e+00 -6.95186366e-02 
 2.00126617e-10  1.20000000e+00  0.00000000e+00 -6.89717395e-02 
 2.00253731e-10  1.20000000e+00  0.00000000e+00 -6.78040756e-02 
 2.00454993e-10  1.20000000e+00  0.00000000e+00 -6.57535805e-02 
 2.00684958e-10  1.20000000e+00  0.00000000e+00 -6.31125316e-02 
 2.00917377e-10  1.20000000e+00  0.00000000e+00 -6.01230915e-02 
 2.01158997e-10  1.20000000e+00  0.00000000e+00 -5.66729173e-02 
 2.01409245e-10  1.20000000e+00  0.00000000e+00 -5.27334496e-02 
 2.01675581e-10  1.20000000e+00  0.00000000e+00 -4.81329179e-02 
 2.01953812e-10  1.20000000e+00  0.00000000e+00 -4.28782552e-02 
 2.02249994e-10  1.20000000e+00  0.00000000e+00 -3.67800378e-02 
 2.02561373e-10  1.20000000e+00  0.00000000e+00 -2.98055230e-02 
 2.02894233e-10  1.20000000e+00  0.00000000e+00 -2.17067288e-02 
 2.03247032e-10  1.20000000e+00  0.00000000e+00 -1.23751277e-02 
 2.03574215e-10  1.20000000e+00  0.00000000e+00 -3.02530617e-03 
 2.03891847e-10  1.20000000e+00  0.00000000e+00  6.68588581e-03 
 2.04210002e-10  1.20000000e+00  0.00000000e+00  1.70442955e-02 
 2.04549876e-10  1.20000000e+00  0.00000000e+00  2.88108347e-02 
 2.04895021e-10  1.20000000e+00  0.00000000e+00  4.15002348e-02 
 2.05264131e-10  1.20000000e+00  0.00000000e+00  5.58934051e-02 
 2.05582127e-10  1.20000000e+00  0.00000000e+00  6.89740769e-02 
 2.05885083e-10  1.20000000e+00  0.00000000e+00  8.20169971e-02 
 2.06223538e-10  1.20000000e+00  0.00000000e+00  9.72457262e-02 
 2.06555071e-10  1.20000000e+00  0.00000000e+00  1.12822688e-01 
 2.06937355e-10  1.20000000e+00  0.00000000e+00  1.31559338e-01 
 2.07285359e-10  1.20000000e+00  0.00000000e+00  1.49300160e-01 
 2.07634671e-10  1.20000000e+00  0.00000000e+00  1.67729350e-01 
 2.07988655e-10  1.20000000e+00  0.00000000e+00  1.87005910e-01 
 2.08336584e-10  1.20000000e+00  0.00000000e+00  2.06508106e-01 
 2.08687207e-10  1.20000000e+00  0.00000000e+00  2.26684249e-01 
 2.09036701e-10  1.20000000e+00  0.00000000e+00  2.47284971e-01 
 2.09391468e-10  1.20000000e+00  0.00000000e+00  2.68663498e-01 
 2.09747673e-10  1.20000000e+00  0.00000000e+00  2.90569912e-01 
 2.10109324e-10  1.20000000e+00  0.00000000e+00  3.13231241e-01 
 2.10473127e-10  1.20000000e+00  0.00000000e+00  3.36422520e-01 
 2.10841801e-10  1.20000000e+00  0.00000000e+00  3.60296946e-01 
 2.11212624e-10  1.20000000e+00  0.00000000e+00  3.84657628e-01 
 2.11587353e-10  1.20000000e+00  0.00000000e+00  4.09597419e-01 
 2.11971483e-10  1.20000000e+00  0.00000000e+00  4.35467451e-01 
 2.12370101e-10  1.20000000e+00  0.00000000e+00  4.62605184e-01 
 2.12779663e-10  1.20000000e+00  0.00000000e+00  4.90761546e-01 
 2.13201200e-10  1.20000000e+00  0.00000000e+00  5.19991846e-01 
 2.13630479e-10  1.20000000e+00  0.00000000e+00  5.49979224e-01 
 2.14067241e-10  1.20000000e+00  0.00000000e+00  5.80673316e-01 
 2.14507257e-10  1.20000000e+00  0.00000000e+00  6.11737460e-01 
 2.14949104e-10  1.20000000e+00  0.00000000e+00  6.43023902e-01 
 2.15388680e-10  1.20000000e+00  0.00000000e+00  6.74189327e-01 
 2.15824069e-10  1.20000000e+00  0.00000000e+00  7.05040202e-01 
 2.16251957e-10  1.20000000e+00  0.00000000e+00  7.35281218e-01 
 2.16670867e-10  1.20000000e+00  0.00000000e+00  7.64746070e-01 
 2.17078867e-10  1.20000000e+00  0.00000000e+00  7.93236471e-01 
 2.17460899e-10  1.20000000e+00  0.00000000e+00  8.19655062e-01 
 2.17822997e-10  1.20000000e+00  0.00000000e+00  8.44400913e-01 
 2.18122526e-10  1.20000000e+00  0.00000000e+00  8.64597666e-01 
 2.18388531e-10  1.20000000e+00  0.00000000e+00  8.82273487e-01 
 2.18693532e-10  1.20000000e+00  0.00000000e+00  9.02183394e-01 
 2.18987202e-10  1.20000000e+00  0.00000000e+00  9.20934860e-01 
 2.19279706e-10  1.20000000e+00  0.00000000e+00  9.39137253e-01 
 2.19555994e-10  1.20000000e+00  0.00000000e+00  9.55835014e-01 
 2.19835514e-10  1.20000000e+00  0.00000000e+00  9.72176364e-01 
 2.20107189e-10  1.20000000e+00  0.00000000e+00  9.87470456e-01 
 2.20385873e-10  1.20000000e+00  0.00000000e+00  1.00249923e+00 
 2.20665036e-10  1.20000000e+00  0.00000000e+00  1.01683142e+00 
 2.20958408e-10  1.20000000e+00  0.00000000e+00  1.03106336e+00 
 2.21265238e-10  1.20000000e+00  0.00000000e+00  1.04499401e+00 
 2.21605356e-10  1.20000000e+00  0.00000000e+00  1.05928493e+00 
 2.21889352e-10  1.20000000e+00  0.00000000e+00  1.07028124e+00 
 2.22133694e-10  1.20000000e+00  0.00000000e+00  1.07903548e+00 
 2.22489981e-10  1.20000000e+00  0.00000000e+00  1.09065970e+00 
 2.22833063e-10  1.20000000e+00  0.00000000e+00  1.10061221e+00 
 2.23116294e-10  1.20000000e+00  0.00000000e+00  1.10795576e+00 
 2.23353507e-10  1.20000000e+00  0.00000000e+00  1.11355029e+00 
 2.23651059e-10  1.20000000e+00  0.00000000e+00  1.11991061e+00 
 2.23936642e-10  1.20000000e+00  0.00000000e+00  1.12537720e+00 
 2.24271607e-10  1.20000000e+00  0.00000000e+00  1.13106530e+00 
 2.24582876e-10  1.20000000e+00  0.00000000e+00  1.13572189e+00 
 2.24901148e-10  1.20000000e+00  0.00000000e+00  1.13992958e+00 
 2.25220860e-10  1.20000000e+00  0.00000000e+00  1.14366388e+00 
 2.25544256e-10  1.20000000e+00  0.00000000e+00  1.14700502e+00 
 2.25887734e-10  1.20000000e+00  0.00000000e+00  1.15014117e+00 
 2.26238551e-10  1.20000000e+00  0.00000000e+00  1.15297012e+00 
 2.26615348e-10  1.20000000e+00  0.00000000e+00  1.15565444e+00 
 2.27005746e-10  1.20000000e+00  0.00000000e+00  1.15811312e+00 
 2.27426646e-10  1.20000000e+00  0.00000000e+00  1.16046194e+00 
 2.27870719e-10  1.20000000e+00  0.00000000e+00  1.16266383e+00 
 2.28352853e-10  1.20000000e+00  0.00000000e+00  1.16479686e+00 
 2.28870786e-10  1.20000000e+00  0.00000000e+00  1.16685071e+00 
 2.29438398e-10  1.20000000e+00  0.00000000e+00  1.16887893e+00 
 2.30057653e-10  1.20000000e+00  0.00000000e+00  1.17088294e+00 
 2.30741282e-10  1.20000000e+00  0.00000000e+00  1.17289589e+00 
 2.31491751e-10  1.20000000e+00  0.00000000e+00  1.17491033e+00 
 2.32296000e-10  1.20000000e+00  0.00000000e+00  1.17688450e+00 
 2.33051366e-10  1.20000000e+00  0.00000000e+00  1.17859421e+00 
 2.33860242e-10  1.20000000e+00  0.00000000e+00  1.18029049e+00 
 2.34647440e-10  1.20000000e+00  0.00000000e+00  1.18181954e+00 
 2.35535550e-10  1.20000000e+00  0.00000000e+00  1.18341093e+00 
 2.36391235e-10  1.20000000e+00  0.00000000e+00  1.18482062e+00 
 2.37212299e-10  1.20000000e+00  0.00000000e+00  1.18606734e+00 
 2.38052521e-10  1.20000000e+00  0.00000000e+00  1.18724358e+00 
 2.38862879e-10  1.20000000e+00  0.00000000e+00  1.18828904e+00 
 2.39710438e-10  1.20000000e+00  0.00000000e+00  1.18929557e+00 
 2.40543974e-10  1.20000000e+00  0.00000000e+00  1.19020479e+00 
 2.41410775e-10  1.20000000e+00  0.00000000e+00  1.19107170e+00 
 2.42274761e-10  1.20000000e+00  0.00000000e+00  1.19186202e+00 
 2.43169405e-10  1.20000000e+00  0.00000000e+00  1.19260890e+00 
 2.44070419e-10  1.20000000e+00  0.00000000e+00  1.19329354e+00 
 2.45002480e-10  1.20000000e+00  0.00000000e+00  1.19393652e+00 
 2.45948465e-10  1.20000000e+00  0.00000000e+00  1.19452721e+00 
 2.46927468e-10  1.20000000e+00  0.00000000e+00  1.19507888e+00 
 2.47927155e-10  1.20000000e+00  0.00000000e+00  1.19558556e+00 
 2.48963048e-10  1.20000000e+00  0.00000000e+00  1.19605617e+00 
 2.50026320e-10  1.20000000e+00  0.00000000e+00  1.19648752e+00 
 2.51130171e-10  1.20000000e+00  0.00000000e+00  1.19688581e+00 
 2.52268540e-10  1.20000000e+00  0.00000000e+00  1.19724956e+00 
 2.53453188e-10  1.20000000e+00  0.00000000e+00  1.19758325e+00 
 2.54680418e-10  1.20000000e+00  0.00000000e+00  1.19788646e+00 
 2.55961263e-10  1.20000000e+00  0.00000000e+00  1.19816253e+00 
 2.57294236e-10  1.20000000e+00  0.00000000e+00  1.19841171e+00 
 2.58690302e-10  1.20000000e+00  0.00000000e+00  1.19863660e+00 
 2.60150255e-10  1.20000000e+00  0.00000000e+00  1.19883786e+00 
 2.61685706e-10  1.20000000e+00  0.00000000e+00  1.19901761e+00 
 2.63300066e-10  1.20000000e+00  0.00000000e+00  1.19917675e+00 
 2.65006479e-10  1.20000000e+00  0.00000000e+00  1.19931706e+00 
 2.66811672e-10  1.20000000e+00  0.00000000e+00  1.19943960e+00 
 2.68731583e-10  1.20000000e+00  0.00000000e+00  1.19954594e+00 
 2.70777543e-10  1.20000000e+00  0.00000000e+00  1.19963718e+00 
 2.72970265e-10  1.20000000e+00  0.00000000e+00  1.19971476e+00 
 2.75328022e-10  1.20000000e+00  0.00000000e+00  1.19977982e+00 
 2.77879697e-10  1.20000000e+00  0.00000000e+00  1.19983366e+00 
 2.80654909e-10  1.20000000e+00  0.00000000e+00  1.19987744e+00 
 2.83697074e-10  1.20000000e+00  0.00000000e+00  1.19991235e+00 
 2.87055987e-10  1.20000000e+00  0.00000000e+00  1.19993951e+00 
 2.90802727e-10  1.20000000e+00  0.00000000e+00  1.19996005e+00 
 2.95026746e-10  1.20000000e+00  0.00000000e+00  1.19997502e+00 
 2.99857320e-10  1.20000000e+00  0.00000000e+00  1.19998545e+00 
 3.05472553e-10  1.20000000e+00  0.00000000e+00  1.19999227e+00 
 3.12143195e-10  1.20000000e+00  0.00000000e+00  1.19999640e+00 
 3.20284504e-10  1.20000000e+00  0.00000000e+00  1.19999861e+00 
 3.30284504e-10  1.20000000e+00  0.00000000e+00  1.19999959e+00 
 3.40284504e-10  1.20000000e+00  0.00000000e+00  1.19999988e+00 
 3.50284504e-10  1.20000000e+00  0.00000000e+00  1.19999996e+00 
 3.60284504e-10  1.20000000e+00  0.00000000e+00  1.19999999e+00 
 3.70284504e-10  1.20000000e+00  0.00000000e+00  1.19999999e+00 
 3.80284504e-10  1.20000000e+00  0.00000000e+00  1.20000000e+00 
 3.90284504e-10  1.20000000e+00  0.00000000e+00  1.20000000e+00 
 4.00284504e-10  1.20000000e+00  0.00000000e+00  1.20000000e+00 
 4.10284504e-10  1.20000000e+00  0.00000000e+00  1.20000000e+00 
 4.20284504e-10  1.20000000e+00  0.00000000e+00  1.20000000e+00 
 4.30284504e-10  1.20000000e+00  0.00000000e+00  1.20000000e+00 
 4.40284504e-10  1.20000000e+00  0.00000000e+00  1.20000000e+00 
 4.50284504e-10  1.20000000e+00  0.00000000e+00  1.20000000e+00 
 4.60284504e-10  1.20000000e+00  0.00000000e+00  1.20000000e+00 
 4.70284504e-10  1.20000000e+00  0.00000000e+00  1.20000000e+00 
 4.80284504e-10  1.20000000e+00  0.00000000e+00  1.20000000e+00 
 4.90284504e-10  1.20000000e+00  0.00000000e+00  1.20000000e+00 
 5.00284504e-10  1.20000000e+00  0.00000000e+00  1.20000000e+00 
 5.10284504e-10  1.20000000e+00  0.00000000e+00  1.20000000e+00 
 5.20284504e-10  1.20000000e+00  0.00000000e+00  1.20000000e+00 
 5.30284504e-10  1.20000000e+00  0.00000000e+00  1.20000000e+00 
 5.40284504e-10  1.20000000e+00  0.00000000e+00  1.20000000e+00 
 5.50284504e-10  1.20000000e+00  0.00000000e+00  1.20000000e+00 
 5.60284504e-10  1.20000000e+00  0.00000000e+00  1.20000000e+00 
 5.70284504e-10  1.20000000e+00  0.00000000e+00  1.20000000e+00 
 5.80284504e-10  1.20000000e+00  0.00000000e+00  1.20000000e+00 
 5.90284504e-10  1.20000000e+00  0.00000000e+00  1.20000000e+00 
 6.00284504e-10  1.20000000e+00  0.00000000e+00  1.20000000e+00 
 6.10284504e-10  1.20000000e+00  0.00000000e+00  1.20000000e+00 
 6.20284504e-10  1.20000000e+00  0.00000000e+00  1.20000000e+00 
 6.30284504e-10  1.20000000e+00  0.00000000e+00  1.20000000e+00 
 6.40284504e-10  1.20000000e+00  0.00000000e+00  1.20000000e+00 
 6.50284504e-10  1.20000000e+00  0.00000000e+00  1.20000000e+00 
 6.60284504e-10  1.20000000e+00  0.00000000e+00  1.20000000e+00 
 6.70284504e-10  1.20000000e+00  0.00000000e+00  1.20000000e+00 
