 v-sweep         v(1)            i(vd)          
 0.00000000e+00  0.00000000e+00  0.00000000e+00 
 2.00000000e-02  0.00000000e+00 -8.88682456e-12 
 4.00000000e-02  0.00000000e+00 -1.51003356e-11 
 6.00000000e-02  0.00000000e+00 -2.01898837e-11 
 8.00000000e-02  0.00000000e+00 -2.84333051e-11 
 1.00000000e-01  0.00000000e+00 -3.98652390e-11 
 1.20000000e-01  0.00000000e+00 -5.52444745e-11 
 1.40000000e-01  0.00000000e+00 -7.53808964e-11 
 1.60000000e-01  0.00000000e+00 -1.01186610e-10 
 1.80000000e-01  0.00000000e+00 -1.33702015e-10 
 2.00000000e-01  0.00000000e+00 -1.74116903e-10 
 2.20000000e-01  0.00000000e+00 -2.23791564e-10 
 2.40000000e-01  0.00000000e+00 -2.84279505e-10 
 2.60000000e-01  0.00000000e+00 -3.57352503e-10 
 2.80000000e-01  0.00000000e+00 -4.45028463e-10 
 3.00000000e-01  0.00000000e+00 -5.49602487e-10 
 3.20000000e-01  0.00000000e+00 -6.73681556e-10 
 3.40000000e-01  0.00000000e+00 -8.20223238e-10 
 3.60000000e-01  0.00000000e+00 -9.92578901e-10 
 3.80000000e-01  0.00000000e+00 -1.19454192e-09 
 4.00000000e-01  0.00000000e+00 -1.43040142e-09 
 4.20000000e-01  0.00000000e+00 -1.70500226e-09 
 4.40000000e-01  0.00000000e+00 -2.02381178e-09 
 4.60000000e-01  0.00000000e+00 -2.39299425e-09 
 4.80000000e-01  0.00000000e+00 -2.81949365e-09 
 5.00000000e-01  0.00000000e+00 -3.31112597e-09 
 5.20000000e-01  0.00000000e+00 -3.87668172e-09 
 5.40000000e-01  0.00000000e+00 -4.52604010e-09 
 5.60000000e-01  0.00000000e+00 -5.27029584e-09 
 5.80000000e-01  0.00000000e+00 -6.12190021e-09 
 6.00000000e-01  0.00000000e+00 -7.09481771e-09 
 6.20000000e-01  0.00000000e+00 -8.20470002e-09 
 6.40000000e-01  0.00000000e+00 -9.46907929e-09 
 6.60000000e-01  0.00000000e+00 -1.09075825e-08 
 6.80000000e-01  0.00000000e+00 -1.25421697e-08 
 7.00000000e-01  0.00000000e+00 -1.43973974e-08 
 7.20000000e-01  0.00000000e+00 -1.65007122e-08 
 7.40000000e-01  0.00000000e+00 -1.88827749e-08 
 7.60000000e-01  0.00000000e+00 -2.15778202e-08 
 7.80000000e-01  0.00000000e+00 -2.46240558e-08 
 8.00000000e-01  0.00000000e+00 -2.80641039e-08 
 8.20000000e-01  0.00000000e+00 -3.19454905e-08 
 8.40000000e-01  0.00000000e+00 -3.63211873e-08 
 8.60000000e-01  0.00000000e+00 -4.12502111e-08 
 8.80000000e-01  0.00000000e+00 -4.67982877e-08 
 9.00000000e-01  0.00000000e+00 -5.30385865e-08 
 9.20000000e-01  0.00000000e+00 -6.00525331e-08 
 9.40000000e-01  0.00000000e+00 -6.79307076e-08 
 9.60000000e-01  0.00000000e+00 -7.67738388e-08 
 9.80000000e-01  0.00000000e+00 -8.66939029e-08 
 1.00000000e+00  0.00000000e+00 -9.78153377e-08 
 1.02000000e+00  0.00000000e+00 -1.10276385e-07 
 1.04000000e+00  0.00000000e+00 -1.24230574e-07 
 1.06000000e+00  0.00000000e+00 -1.39848357e-07 
 1.08000000e+00  0.00000000e+00 -1.57318925e-07 
 1.10000000e+00  0.00000000e+00 -1.76852198e-07 
 1.12000000e+00  0.00000000e+00 -1.98681036e-07 
 1.14000000e+00  0.00000000e+00 -2.23063676e-07 
 1.16000000e+00  0.00000000e+00 -2.50286414e-07 
 1.18000000e+00  0.00000000e+00 -2.80666583e-07 
 1.20000000e+00  0.00000000e+00 -3.14555825e-07 
 0.00000000e+00  2.00000000e-01  1.61959384e-10 
 2.00000000e-02  2.00000000e-01 -2.03167205e-08 
 4.00000000e-02  2.00000000e-01 -2.72345981e-08 
 6.00000000e-02  2.00000000e-01 -2.98505205e-08 
 8.00000000e-02  2.00000000e-01 -3.13463474e-08 
 1.00000000e-01  2.00000000e-01 -3.24914440e-08 
 1.20000000e-01  2.00000000e-01 -3.34976278e-08 
 1.40000000e-01  2.00000000e-01 -3.44380420e-08 
 1.60000000e-01  2.00000000e-01 -3.53432245e-08 
 1.80000000e-01  2.00000000e-01 -3.62279270e-08 
 2.00000000e-01  2.00000000e-01 -3.71053938e-08 
 2.20000000e-01  2.00000000e-01 -3.79682215e-08 
 2.40000000e-01  2.00000000e-01 -3.88304772e-08 
 2.60000000e-01  2.00000000e-01 -3.96939346e-08 
 2.80000000e-01  2.00000000e-01 -4.05598038e-08 
 3.00000000e-01  2.00000000e-01 -4.14289024e-08 
 3.20000000e-01  2.00000000e-01 -4.23024810e-08 
 3.40000000e-01  2.00000000e-01 -4.31817418e-08 
 3.60000000e-01  2.00000000e-01 -4.40678993e-08 
 3.80000000e-01  2.00000000e-01 -4.49622272e-08 
 4.00000000e-01  2.00000000e-01 -4.58660958e-08 
 4.20000000e-01  2.00000000e-01 -4.67810066e-08 
 4.40000000e-01  2.00000000e-01 -4.77086240e-08 
 4.60000000e-01  2.00000000e-01 -4.86508073e-08 
 4.80000000e-01  2.00000000e-01 -4.96096439e-08 
 5.00000000e-01  2.00000000e-01 -5.05874840e-08 
 5.20000000e-01  2.00000000e-01 -5.15869781e-08 
 5.40000000e-01  2.00000000e-01 -5.26111184e-08 
 5.60000000e-01  2.00000000e-01 -5.36632830e-08 
 5.80000000e-01  2.00000000e-01 -5.47472863e-08 
 6.00000000e-01  2.00000000e-01 -5.58674334e-08 
 6.20000000e-01  2.00000000e-01 -5.70285811e-08 
 6.40000000e-01  2.00000000e-01 -5.82362053e-08 
 6.60000000e-01  2.00000000e-01 -5.94964764e-08 
 6.80000000e-01  2.00000000e-01 -6.08163425e-08 
 7.00000000e-01  2.00000000e-01 -6.22036218e-08 
 7.20000000e-01  2.00000000e-01 -6.36671064e-08 
 7.40000000e-01  2.00000000e-01 -6.52166761e-08 
 7.60000000e-01  2.00000000e-01 -6.68634257e-08 
 7.80000000e-01  2.00000000e-01 -6.86198070e-08 
 8.00000000e-01  2.00000000e-01 -7.04997850e-08 
 8.20000000e-01  2.00000000e-01 -7.25190126e-08 
 8.40000000e-01  2.00000000e-01 -7.46950242e-08 
 8.60000000e-01  2.00000000e-01 -7.70474500e-08 
 8.80000000e-01  2.00000000e-01 -7.95982548e-08 
 9.00000000e-01  2.00000000e-01 -8.23720017e-08 
 9.20000000e-01  2.00000000e-01 -8.53961457e-08 
 9.40000000e-01  2.00000000e-01 -8.87013579e-08 
 9.60000000e-01  2.00000000e-01 -9.23218861e-08 
 9.80000000e-01  2.00000000e-01 -9.62959533e-08 
 1.00000000e+00  2.00000000e-01 -1.00666200e-07 
 1.02000000e+00  2.00000000e-01 -1.05480174e-07 
 1.04000000e+00  2.00000000e-01 -1.10790871e-07 
 1.06000000e+00  2.00000000e-01 -1.16657337e-07 
 1.08000000e+00  2.00000000e-01 -1.23145329e-07 
 1.10000000e+00  2.00000000e-01 -1.30328055e-07 
 1.12000000e+00  2.00000000e-01 -1.38286983e-07 
 1.14000000e+00  2.00000000e-01 -1.47112743e-07 
 1.16000000e+00  2.00000000e-01 -1.56906120e-07 
 1.18000000e+00  2.00000000e-01 -1.67779161e-07 
 1.20000000e+00  2.00000000e-01 -1.79856383e-07 
 0.00000000e+00  4.00000000e-01  2.51281444e-09 
 2.00000000e-02  4.00000000e-01 -6.73910582e-06 
 4.00000000e-02  4.00000000e-01 -9.44282709e-06 
 6.00000000e-02  4.00000000e-01 -1.04809222e-05 
 8.00000000e-02  4.00000000e-01 -1.10162407e-05 
 1.00000000e-01  4.00000000e-01 -1.13920778e-05 
 1.20000000e-01  4.00000000e-01 -1.17066220e-05 
 1.40000000e-01  4.00000000e-01 -1.19931534e-05 
 1.60000000e-01  4.00000000e-01 -1.22651292e-05 
 1.80000000e-01  4.00000000e-01 -1.25288250e-05 
 2.00000000e-01  4.00000000e-01 -1.27875089e-05 
 2.20000000e-01  4.00000000e-01 -1.30430356e-05 
 2.40000000e-01  4.00000000e-01 -1.32965318e-05 
 2.60000000e-01  4.00000000e-01 -1.35492772e-05 
 2.80000000e-01  4.00000000e-01 -1.38004291e-05 
 3.00000000e-01  4.00000000e-01 -1.40511553e-05 
 3.20000000e-01  4.00000000e-01 -1.43016748e-05 
 3.40000000e-01  4.00000000e-01 -1.45521506e-05 
 3.60000000e-01  4.00000000e-01 -1.48027063e-05 
 3.80000000e-01  4.00000000e-01 -1.50534370e-05 
 4.00000000e-01  4.00000000e-01 -1.53044166e-05 
 4.20000000e-01  4.00000000e-01 -1.55557039e-05 
 4.40000000e-01  4.00000000e-01 -1.58073482e-05 
 4.60000000e-01  4.00000000e-01 -1.60593861e-05 
 4.80000000e-01  4.00000000e-01 -1.63118475e-05 
 5.00000000e-01  4.00000000e-01 -1.65647565e-05 
 5.20000000e-01  4.00000000e-01 -1.68181332e-05 
 5.40000000e-01  4.00000000e-01 -1.70719936e-05 
 5.60000000e-01  4.00000000e-01 -1.73263513e-05 
 5.80000000e-01  4.00000000e-01 -1.75814727e-05 
 6.00000000e-01  4.00000000e-01 -1.78368608e-05 
 6.20000000e-01  4.00000000e-01 -1.80927736e-05 
 6.40000000e-01  4.00000000e-01 -1.83492177e-05 
 6.60000000e-01  4.00000000e-01 -1.86061991e-05 
 6.80000000e-01  4.00000000e-01 -1.88637229e-05 
 7.00000000e-01  4.00000000e-01 -1.91217940e-05 
 7.20000000e-01  4.00000000e-01 -1.93804167e-05 
 7.40000000e-01  4.00000000e-01 -1.96395957e-05 
 7.60000000e-01  4.00000000e-01 -1.98993354e-05 
 7.80000000e-01  4.00000000e-01 -2.01596408e-05 
 8.00000000e-01  4.00000000e-01 -2.04205172e-05 
 8.20000000e-01  4.00000000e-01 -2.06819705e-05 
 8.40000000e-01  4.00000000e-01 -2.09440077e-05 
 8.60000000e-01  4.00000000e-01 -2.12066363e-05 
 8.80000000e-01  4.00000000e-01 -2.14698653e-05 
 9.00000000e-01  4.00000000e-01 -2.17337048e-05 
 9.20000000e-01  4.00000000e-01 -2.19981664e-05 
 9.40000000e-01  4.00000000e-01 -2.22632633e-05 
 9.60000000e-01  4.00000000e-01 -2.25290107e-05 
 9.80000000e-01  4.00000000e-01 -2.27954258e-05 
 1.00000000e+00  4.00000000e-01 -2.30625278e-05 
 1.02000000e+00  4.00000000e-01 -2.33303389e-05 
 1.04000000e+00  4.00000000e-01 -2.35988836e-05 
 1.06000000e+00  4.00000000e-01 -2.38681897e-05 
 1.08000000e+00  4.00000000e-01 -2.41382886e-05 
 1.10000000e+00  4.00000000e-01 -2.44092152e-05 
 1.12000000e+00  4.00000000e-01 -2.46810091e-05 
 1.14000000e+00  4.00000000e-01 -2.49537146e-05 
 1.16000000e+00  4.00000000e-01 -2.52273822e-05 
 1.18000000e+00  4.00000000e-01 -2.55020686e-05 
 1.20000000e+00  4.00000000e-01 -2.57778390e-05 
 0.00000000e+00  6.00000000e-01  1.34224339e-08 
 2.00000000e-02  6.00000000e-01 -1.41152688e-04 
 4.00000000e-02  6.00000000e-01 -2.53421718e-04 
 6.00000000e-02  6.00000000e-01 -3.38884752e-04 
 8.00000000e-02  6.00000000e-01 -4.00286091e-04 
 1.00000000e-01  6.00000000e-01 -4.41582191e-04 
 1.20000000e-01  6.00000000e-01 -4.68046641e-04 
 1.40000000e-01  6.00000000e-01 -4.85116212e-04 
 1.60000000e-01  6.00000000e-01 -4.96878225e-04 
 1.80000000e-01  6.00000000e-01 -5.05741599e-04 
 2.00000000e-01  6.00000000e-01 -5.12972111e-04 
 2.20000000e-01  6.00000000e-01 -5.19227383e-04 
 2.40000000e-01  6.00000000e-01 -5.24863477e-04 
 2.60000000e-01  6.00000000e-01 -5.30084690e-04 
 2.80000000e-01  6.00000000e-01 -5.35144392e-04 
 3.00000000e-01  6.00000000e-01 -5.39829489e-04 
 3.20000000e-01  6.00000000e-01 -5.44367473e-04 
 3.40000000e-01  6.00000000e-01 -5.48791129e-04 
 3.60000000e-01  6.00000000e-01 -5.53124450e-04 
 3.80000000e-01  6.00000000e-01 -5.57385360e-04 
 4.00000000e-01  6.00000000e-01 -5.61587499e-04 
 4.20000000e-01  6.00000000e-01 -5.65741418e-04 
 4.40000000e-01  6.00000000e-01 -5.69855403e-04 
 4.60000000e-01  6.00000000e-01 -5.73936041e-04 
 4.80000000e-01  6.00000000e-01 -5.77988638e-04 
 5.00000000e-01  6.00000000e-01 -5.82017507e-04 
 5.20000000e-01  6.00000000e-01 -5.86026191e-04 
 5.40000000e-01  6.00000000e-01 -5.90017626e-04 
 5.60000000e-01  6.00000000e-01 -5.93994263e-04 
 5.80000000e-01  6.00000000e-01 -5.97958160e-04 
 6.00000000e-01  6.00000000e-01 -6.01911063e-04 
 6.20000000e-01  6.00000000e-01 -6.05854456e-04 
 6.40000000e-01  6.00000000e-01 -6.09789614e-04 
 6.60000000e-01  6.00000000e-01 -6.13717632e-04 
 6.80000000e-01  6.00000000e-01 -6.17639456e-04 
 7.00000000e-01  6.00000000e-01 -6.21555910e-04 
 7.20000000e-01  6.00000000e-01 -6.25467715e-04 
 7.40000000e-01  6.00000000e-01 -6.29375506e-04 
 7.60000000e-01  6.00000000e-01 -6.33279844e-04 
 7.80000000e-01  6.00000000e-01 -6.37181229e-04 
 8.00000000e-01  6.00000000e-01 -6.41080112e-04 
 8.20000000e-01  6.00000000e-01 -6.44976899e-04 
 8.40000000e-01  6.00000000e-01 -6.48871966e-04 
 8.60000000e-01  6.00000000e-01 -6.52765658e-04 
 8.80000000e-01  6.00000000e-01 -6.56658299e-04 
 9.00000000e-01  6.00000000e-01 -6.60550197e-04 
 9.20000000e-01  6.00000000e-01 -6.64441649e-04 
 9.40000000e-01  6.00000000e-01 -6.68332943e-04 
 9.60000000e-01  6.00000000e-01 -6.72224475e-04 
 9.80000000e-01  6.00000000e-01 -6.76116450e-04 
 1.00000000e+00  6.00000000e-01 -6.80009123e-04 
 1.02000000e+00  6.00000000e-01 -6.83902788e-04 
 1.04000000e+00  6.00000000e-01 -6.87797744e-04 
 1.06000000e+00  6.00000000e-01 -6.91694300e-04 
 1.08000000e+00  6.00000000e-01 -6.95592776e-04 
 1.10000000e+00  6.00000000e-01 -6.99493507e-04 
 1.12000000e+00  6.00000000e-01 -7.03396843e-04 
 1.14000000e+00  6.00000000e-01 -7.07303154e-04 
 1.16000000e+00  6.00000000e-01 -7.11212830e-04 
 1.18000000e+00  6.00000000e-01 -7.15126290e-04 
 1.20000000e+00  6.00000000e-01 -7.19043985e-04 
 0.00000000e+00  8.00000000e-01  5.53687537e-08 
 2.00000000e-02  8.00000000e-01 -3.21558426e-04 
 4.00000000e-02  8.00000000e-01 -6.10648970e-04 
 6.00000000e-02  8.00000000e-01 -8.68484510e-04 
 8.00000000e-02  8.00000000e-01 -1.09629759e-03 
 1.00000000e-01  8.00000000e-01 -1.29530744e-03 
 1.20000000e-01  8.00000000e-01 -1.46675828e-03 
 1.40000000e-01  8.00000000e-01 -1.61198659e-03 
 1.60000000e-01  8.00000000e-01 -1.73253663e-03 
 1.80000000e-01  8.00000000e-01 -1.83033780e-03 
 2.00000000e-01  8.00000000e-01 -1.90790855e-03 
 2.20000000e-01  8.00000000e-01 -1.96843793e-03 
 2.40000000e-01  8.00000000e-01 -2.01554010e-03 
 2.60000000e-01  8.00000000e-01 -2.05270894e-03 
 2.80000000e-01  8.00000000e-01 -2.08282883e-03 
 3.00000000e-01  8.00000000e-01 -2.10801518e-03 
 3.20000000e-01  8.00000000e-01 -2.13126475e-03 
 3.40000000e-01  8.00000000e-01 -2.15004070e-03 
 3.60000000e-01  8.00000000e-01 -2.16710462e-03 
 3.80000000e-01  8.00000000e-01 -2.18286131e-03 
 4.00000000e-01  8.00000000e-01 -2.19759925e-03 
 4.20000000e-01  8.00000000e-01 -2.21152927e-03 
 4.40000000e-01  8.00000000e-01 -2.22480874e-03 
 4.60000000e-01  8.00000000e-01 -2.23755728e-03 
 4.80000000e-01  8.00000000e-01 -2.24986722e-03 
 5.00000000e-01  8.00000000e-01 -2.26181090e-03 
 5.20000000e-01  8.00000000e-01 -2.27344568e-03 
 5.40000000e-01  8.00000000e-01 -2.28481758e-03 
 5.60000000e-01  8.00000000e-01 -2.29596390e-03 
 5.80000000e-01  8.00000000e-01 -2.30691517e-03 
 6.00000000e-01  8.00000000e-01 -2.31769659e-03 
 6.20000000e-01  8.00000000e-01 -2.32832911e-03 
 6.40000000e-01  8.00000000e-01 -2.33883031e-03 
 6.60000000e-01  8.00000000e-01 -2.34921501e-03 
 6.80000000e-01  8.00000000e-01 -2.35949580e-03 
 7.00000000e-01  8.00000000e-01 -2.36968342e-03 
 7.20000000e-01  8.00000000e-01 -2.37978711e-03 
 7.40000000e-01  8.00000000e-01 -2.38981485e-03 
 7.60000000e-01  8.00000000e-01 -2.39977353e-03 
 7.80000000e-01  8.00000000e-01 -2.40966920e-03 
 8.00000000e-01  8.00000000e-01 -2.41950713e-03 
 8.20000000e-01  8.00000000e-01 -2.42929196e-03 
 8.40000000e-01  8.00000000e-01 -2.43902781e-03 
 8.60000000e-01  8.00000000e-01 -2.44871834e-03 
 8.80000000e-01  8.00000000e-01 -2.45836681e-03 
 9.00000000e-01  8.00000000e-01 -2.46797615e-03 
 9.20000000e-01  8.00000000e-01 -2.47754902e-03 
 9.40000000e-01  8.00000000e-01 -2.48708785e-03 
 9.60000000e-01  8.00000000e-01 -2.49659485e-03 
 9.80000000e-01  8.00000000e-01 -2.50607209e-03 
 1.00000000e+00  8.00000000e-01 -2.51552147e-03 
 1.02000000e+00  8.00000000e-01 -2.52494482e-03 
 1.04000000e+00  8.00000000e-01 -2.53434385e-03 
 1.06000000e+00  8.00000000e-01 -2.54372020e-03 
 1.08000000e+00  8.00000000e-01 -2.55307547e-03 
 1.10000000e+00  8.00000000e-01 -2.56241122e-03 
 1.12000000e+00  8.00000000e-01 -2.57172897e-03 
 1.14000000e+00  8.00000000e-01 -2.58103027e-03 
 1.16000000e+00  8.00000000e-01 -2.59031660e-03 
 1.18000000e+00  8.00000000e-01 -2.59958951e-03 
 1.20000000e+00  8.00000000e-01 -2.60885053e-03 
 0.00000000e+00  1.00000000e+00  1.93741117e-07 
 2.00000000e-02  1.00000000e+00 -4.39648284e-04 
 4.00000000e-02  1.00000000e+00 -8.49428024e-04 
 6.00000000e-02  1.00000000e+00 -1.23005738e-03 
 8.00000000e-02  1.00000000e+00 -1.58241706e-03 
 1.00000000e-01  1.00000000e+00 -1.90735923e-03 
 1.20000000e-01  1.00000000e+00 -2.20571152e-03 
 1.40000000e-01  1.00000000e+00 -2.47828232e-03 
 1.60000000e-01  1.00000000e+00 -2.72586831e-03 
 1.80000000e-01  1.00000000e+00 -2.94926558e-03 
 2.00000000e-01  1.00000000e+00 -3.14928715e-03 
 2.20000000e-01  1.00000000e+00 -3.32679066e-03 
 2.40000000e-01  1.00000000e+00 -3.48272231e-03 
 2.60000000e-01  1.00000000e+00 -3.61818262e-03 
 2.80000000e-01  1.00000000e+00 -3.73451350e-03 
 3.00000000e-01  1.00000000e+00 -3.83338542e-03 
 3.20000000e-01  1.00000000e+00 -3.91683042e-03 
 3.40000000e-01  1.00000000e+00 -3.98715623e-03 
 3.60000000e-01  1.00000000e+00 -4.04673580e-03 
 3.80000000e-01  1.00000000e+00 -4.10169902e-03 
 4.00000000e-01  1.00000000e+00 -4.14516909e-03 
 4.20000000e-01  1.00000000e+00 -4.18360919e-03 
 4.40000000e-01  1.00000000e+00 -4.21812267e-03 
 4.60000000e-01  1.00000000e+00 -4.24953001e-03 
 4.80000000e-01  1.00000000e+00 -4.27844729e-03 
 5.00000000e-01  1.00000000e+00 -4.30534354e-03 
 5.20000000e-01  1.00000000e+00 -4.33058078e-03 
 5.40000000e-01  1.00000000e+00 -4.35444206e-03 
 5.60000000e-01  1.00000000e+00 -4.37715125e-03 
 5.80000000e-01  1.00000000e+00 -4.39888736e-03 
 6.00000000e-01  1.00000000e+00 -4.41979486e-03 
 6.20000000e-01  1.00000000e+00 -4.43999144e-03 
 6.40000000e-01  1.00000000e+00 -4.45957375e-03 
 6.60000000e-01  1.00000000e+00 -4.47862176e-03 
 6.80000000e-01  1.00000000e+00 -4.49720214e-03 
 7.00000000e-01  1.00000000e+00 -4.51537080e-03 
 7.20000000e-01  1.00000000e+00 -4.53317496e-03 
 7.40000000e-01  1.00000000e+00 -4.55065471e-03 
 7.60000000e-01  1.00000000e+00 -4.56784425e-03 
 7.80000000e-01  1.00000000e+00 -4.58477295e-03 
 8.00000000e-01  1.00000000e+00 -4.60146614e-03 
 8.20000000e-01  1.00000000e+00 -4.61794575e-03 
 8.40000000e-01  1.00000000e+00 -4.63423086e-03 
 8.60000000e-01  1.00000000e+00 -4.65033814e-03 
 8.80000000e-01  1.00000000e+00 -4.66628223e-03 
 9.00000000e-01  1.00000000e+00 -4.68207602e-03 
 9.20000000e-01  1.00000000e+00 -4.69773092e-03 
 9.40000000e-01  1.00000000e+00 -4.71325704e-03 
 9.60000000e-01  1.00000000e+00 -4.72866344e-03 
 9.80000000e-01  1.00000000e+00 -4.74395822e-03 
 1.00000000e+00  1.00000000e+00 -4.75914867e-03 
 1.02000000e+00  1.00000000e+00 -4.77424141e-03 
 1.04000000e+00  1.00000000e+00 -4.78924247e-03 
 1.06000000e+00  1.00000000e+00 -4.80415735e-03 
 1.08000000e+00  1.00000000e+00 -4.81899116e-03 
 1.10000000e+00  1.00000000e+00 -4.83374862e-03 
 1.12000000e+00  1.00000000e+00 -4.84843414e-03 
 1.14000000e+00  1.00000000e+00 -4.86305191e-03 
 1.16000000e+00  1.00000000e+00 -4.87760588e-03 
 1.18000000e+00  1.00000000e+00 -4.89209985e-03 
 1.20000000e+00  1.00000000e+00 -4.90653748e-03 
 0.00000000e+00  1.20000000e+00  6.13316379e-07 
 2.00000000e-02  1.20000000e+00 -5.12364819e-04 
 4.00000000e-02  1.20000000e+00 -9.98780458e-04 
 6.00000000e-02  1.20000000e+00 -1.45928743e-03 
 8.00000000e-02  1.20000000e+00 -1.89452242e-03 
 1.00000000e-01  1.20000000e+00 -2.30510413e-03 
 1.20000000e-01  1.20000000e+00 -2.69163465e-03 
 1.40000000e-01  1.20000000e+00 -3.05470087e-03 
 1.60000000e-01  1.20000000e+00 -3.39487624e-03 
 1.80000000e-01  1.20000000e+00 -3.71272282e-03 
 2.00000000e-01  1.20000000e+00 -4.00879385e-03 
 2.20000000e-01  1.20000000e+00 -4.28363715e-03 
 2.40000000e-01  1.20000000e+00 -4.53779968e-03 
 2.60000000e-01  1.20000000e+00 -4.77183396e-03 
 2.80000000e-01  1.20000000e+00 -4.98630724e-03 
 3.00000000e-01  1.20000000e+00 -5.18181494e-03 
 3.20000000e-01  1.20000000e+00 -5.35899991e-03 
 3.40000000e-01  1.20000000e+00 -5.51857979e-03 
 3.60000000e-01  1.20000000e+00 -5.66138289e-03 
 3.80000000e-01  1.20000000e+00 -5.78838957e-03 
 4.00000000e-01  1.20000000e+00 -5.90076740e-03 
 4.20000000e-01  1.20000000e+00 -5.99987947e-03 
 4.40000000e-01  1.20000000e+00 -6.09285578e-03 
 4.60000000e-01  1.20000000e+00 -6.16926461e-03 
 4.80000000e-01  1.20000000e+00 -6.23709184e-03 
 5.00000000e-01  1.20000000e+00 -6.29777953e-03 
 5.20000000e-01  1.20000000e+00 -6.35255890e-03 
 5.40000000e-01  1.20000000e+00 -6.40244551e-03 
 5.60000000e-01  1.20000000e+00 -6.44826372e-03 
 5.80000000e-01  1.20000000e+00 -6.49067985e-03 
 6.00000000e-01  1.20000000e+00 -6.53023330e-03 
 6.20000000e-01  1.20000000e+00 -6.56736267e-03 
 6.40000000e-01  1.20000000e+00 -6.60242650e-03 
 6.60000000e-01  1.20000000e+00 -6.63571957e-03 
 6.80000000e-01  1.20000000e+00 -6.66748566e-03 
 7.00000000e-01  1.20000000e+00 -6.69792752e-03 
 7.20000000e-01  1.20000000e+00 -6.72721469e-03 
 7.40000000e-01  1.20000000e+00 -6.75548973e-03 
 7.60000000e-01  1.20000000e+00 -6.78287314e-03 
 7.80000000e-01  1.20000000e+00 -6.80946723e-03 
 8.00000000e-01  1.20000000e+00 -6.83535932e-03 
